#  HZ   S   RI   R     50.00 
! Rohde & Schwarz Vector Network Analyzer 
! Rohde-Schwarz,ZNB8-4Port,REDACTED,3.12
! Created: UTC 3/23/2026, 9:49:24 PM
! VAT-20+
! freq[Hz]                re:S11                  im:S11                  re:S21                  im:S21                  re:S12                  im:S12                  re:S22                  im:S22
 1.000000000000000E4     8.024188717568574E-4   -3.450431054800739E-3    1.019477602801670E-1    6.566313204737706E-4    9.682734758944762E-2   -1.143808231952098E-3   -2.126385542945362E-2    8.641429816780089E-3
 4.250995000000000E7    -6.569526959285961E-3    2.224346428280186E-4    9.873630749263150E-2   -1.073453252928479E-2    9.870446385230799E-2   -1.055117283592139E-2   -1.059800168164643E-2   -3.474566035310759E-3
 8.500990000000000E7    -8.555109697417922E-3    4.223619234932163E-3    9.719121311381100E-2   -1.985890439246750E-2    9.774221662898291E-2   -1.954358814027901E-2   -8.722131582386532E-3   -9.865495915124891E-3
 1.275098500000000E8    -7.350823224000857E-3    1.705210685241015E-3    9.409943381739597E-2   -2.691774028998162E-2    9.559187709744603E-2   -2.824038094543669E-2   -7.832897437077364E-3   -1.396456510484005E-2
 1.700098000000000E8    -5.850400446964128E-3    6.185632958778561E-3    9.243683717680169E-2   -3.962376668145847E-2    8.871171635543532E-2   -3.940448837199732E-2   -1.264838641911787E-2   -1.964256054803036E-2
 2.125097500000000E8    -2.729729889081226E-3    5.496402096990849E-3    8.538764483477375E-2   -4.928504400507896E-2    8.504166423038839E-2   -4.406708921234076E-2   -1.201128320210174E-2   -1.997022749637384E-2
 2.550097000000000E8    -3.943266842190978E-3    7.331151046778365E-3    8.147170888179490E-2   -5.797822550950173E-2    8.350825467753570E-2   -5.503333645716137E-2   -1.256715209368361E-2   -2.247638519229217E-2
 2.975096500000000E8    -3.238920349541016E-5    8.336343077302225E-3    7.665351929995966E-2   -6.434536370655644E-2    7.362342557903492E-2   -6.440870152668736E-2   -1.446796011276026E-2   -2.807003540308125E-2
 3.400096000000000E8    -5.228877090497026E-3    8.714203053168406E-3    6.628346330474420E-2   -6.823419509018978E-2    6.858446010312252E-2   -7.516038282604230E-2   -1.782451109812357E-2   -2.658442966684902E-2
 3.825095500000000E8    -2.320910917897154E-3    7.246855089539274E-3    6.218720801976685E-2   -7.564342799518739E-2    6.287194443826387E-2   -7.835650470353497E-2   -2.327665559814198E-2   -3.490909326485685E-2
 4.250095000000000E8    -2.610173724221747E-4    1.247690876799881E-2    5.018805762948464E-2   -8.194386400986904E-2    5.033599702150055E-2   -8.363650434393308E-2   -2.357588726995080E-2   -3.724440534116218E-2
 4.675094500000000E8    -1.410325466143979E-3    1.041788275875268E-2    4.555476595548194E-2   -8.522801800317793E-2    4.446289694185460E-2   -8.539137279309850E-2   -2.372759878059016E-2   -3.923928314232990E-2
 5.100094000000000E8    -7.774952699127468E-5    1.246508846552849E-2    3.607205095979310E-2   -9.485414652995339E-2    3.106562913295430E-2   -9.100610509489787E-2   -2.272133989648964E-2   -4.328232179306223E-2
 5.525093500000000E8     7.450820046295671E-5    1.205385975544131E-2    2.582531852013564E-2   -9.545568764602501E-2    2.542898447582644E-2   -9.820453772322742E-2   -2.876554125217066E-2   -4.845327992784289E-2
 5.950093000000000E8     5.188874732390908E-4    9.937006601934363E-3    1.803966374918251E-2   -9.944870031224376E-2    1.588114829263570E-2   -9.612043971272359E-2   -3.118271516589820E-2   -5.019498818932193E-2
 6.375092500000000E8     1.143233974530306E-3    1.193845875181818E-2    6.967162956106029E-3   -9.622235374114470E-2    5.490594409042930E-3   -9.628575790457845E-2   -3.669000533414051E-2   -5.434273357076903E-2
 6.800092000000000E8     3.033538485509934E-3    1.128475992368011E-2   -8.098586961703941E-4   -1.004242210242403E-1   -4.417332309879854E-3   -9.761251988082148E-2   -3.632732687883668E-2   -5.295704773688938E-2
 7.225091500000000E8     2.233433467156473E-3    1.349504484575084E-2   -1.271358688878831E-2   -9.741029539117860E-2   -1.360171573753581E-2   -1.005192023992328E-1   -4.063994202795176E-2   -6.288509407963006E-2
 7.650091000000000E8     3.021173558386548E-3    1.218412647697030E-2   -2.287707572586275E-2   -9.478113395168401E-2   -2.326646230832401E-2   -9.455795795223221E-2   -4.668130296930756E-2   -6.419191075327711E-2
 8.075090500000000E8     6.529009858864388E-3    1.359101873244452E-2   -3.167226901391464E-2   -9.183224742091867E-2   -2.894988740367882E-2   -9.079922447622284E-2   -4.848526944606637E-2   -6.597299417193334E-2
 8.500090000000000E8     3.566954398609355E-3    1.387991734563165E-2   -3.583882188687851E-2   -8.875724939765547E-2   -3.831776353156999E-2   -8.710083854644304E-2   -5.240425794191252E-2   -6.606194903613642E-2
 8.925089500000000E8     5.172803505438794E-3    1.357139408518713E-2   -4.693421974918725E-2   -8.220340171035187E-2   -4.702767751926282E-2   -8.261750035713372E-2   -5.972081486944088E-2   -6.465341216765240E-2
 9.350089000000000E8     7.164419602880704E-3    9.845212712723265E-3   -5.734350968450956E-2   -7.667010389580592E-2   -5.650085276076054E-2   -7.811702550724947E-2   -6.215550815465133E-2   -7.079691529063467E-2
 9.775088500000000E8     9.774613298378709E-3    1.043552359920960E-2   -6.667721749240034E-2   -7.220766699269239E-2   -6.182095208021295E-2   -7.044324364303980E-2   -6.578171027758908E-2   -7.039168298469466E-2
 1.020008800000000E9     9.878161307020343E-3    1.207952649332247E-2   -6.902445402394181E-2   -6.228474598456060E-2   -6.753734471527748E-2   -6.782257346590650E-2   -6.661283430223318E-2   -7.614147562655733E-2
 1.062508750000000E9     1.164477478221792E-2    1.306529846850626E-2   -7.482966043518915E-2   -6.083927536555647E-2   -7.619926268003333E-2   -5.778294599184604E-2   -7.288466507220868E-2   -7.543925219171303E-2
 1.105008700000000E9     1.066905844966683E-2    1.435216542881516E-2   -7.817555216783909E-2   -5.275820059591966E-2   -8.318346249617131E-2   -5.092771691714650E-2   -7.587555235269411E-2   -7.463778235199985E-2
 1.147508650000000E9     8.824854829853696E-3    1.053901559243237E-2   -8.749244712842340E-2   -4.188134554454957E-2   -8.371447791449062E-2   -4.087398225340944E-2   -8.054737351908058E-2   -7.318462311168970E-2
 1.190008600000000E9     9.954529800969742E-3    1.298158729166314E-2   -8.704621988087337E-2   -3.155945143810430E-2   -9.201325278816941E-2   -2.960682685999363E-2   -8.301575450020822E-2   -7.184877060097269E-2
 1.232508550000000E9     8.092898521250001E-3    1.523739844308280E-2   -9.168178270072352E-2   -2.073797186229970E-2   -9.282366886353785E-2   -2.449326727717134E-2   -9.003921684491727E-2   -8.002488911811532E-2
 1.275008500000000E9     1.166432554859682E-2    1.391214018937118E-2   -9.315737044551474E-2   -1.485067249939426E-2   -9.276551956307789E-2   -1.232441788021260E-2   -9.428280438665362E-2   -7.675408591612341E-2
 1.317508450000000E9     1.075222971666237E-2    1.296281863072411E-2   -9.550803790520818E-2   -6.493778761776912E-3   -9.699196928925720E-2   -8.144545554584860E-3   -9.681663465197352E-2   -7.370085628901819E-2
 1.360008400000000E9     1.129698886771110E-2    1.293238711634613E-2   -9.840433327198700E-2    5.386804545371885E-3   -9.591462231630717E-2    2.672595883405404E-3   -1.054308434305342E-1   -7.418398024446812E-2
 1.402508350000000E9     1.274111065080076E-2    1.280170067941556E-2   -9.208856006265331E-2    1.318741150889575E-2   -9.500303396258990E-2    1.475169018221751E-2   -1.029586507745932E-1   -7.110155055921051E-2
 1.445008300000000E9     8.512225340023463E-3    1.448680154404456E-2   -9.002798395360032E-2    2.278265346333721E-2   -9.419972766974335E-2    2.232923457549864E-2   -1.087220566625075E-1   -7.650448584590984E-2
 1.487508250000000E9     1.155623563720708E-2    1.035917605431501E-2   -8.876130076610148E-2    3.072651695482687E-2   -9.029975959835582E-2    3.071651865157880E-2   -1.163760068221335E-1   -7.438198063778628E-2
 1.530008200000000E9     8.723303078342161E-3    1.232486799025902E-2   -8.583507888777524E-2    3.699572432967976E-2   -8.730066095373487E-2    4.218819949586421E-2   -1.168321536224700E-1   -7.384329572030937E-2
 1.572508150000000E9     1.181170603151302E-2    1.006136700286370E-2   -7.971418867574254E-2    4.779537303674490E-2   -8.199310382900106E-2    4.843793892969347E-2   -1.248151352826523E-1   -7.349676992603571E-2
 1.615008100000000E9     6.102051277555702E-3    1.128020294126398E-2   -7.448571142747874E-2    5.761910737643091E-2   -7.427283754428247E-2    5.868221130076819E-2   -1.289052494391652E-1   -7.752655867898765E-2
 1.657508050000000E9     1.103193303973481E-2    1.576549648887537E-2   -6.789502022421162E-2    5.986738708554423E-2   -7.228451594137314E-2    6.253811394388471E-2   -1.344769259932613E-1   -8.565145841193525E-2
 1.700008000000000E9     9.620772582558602E-3    1.897761397977626E-2   -6.112237753355669E-2    6.684736468769578E-2   -6.430437597322741E-2    7.026269907180975E-2   -1.446274731513100E-1   -9.912933654190841E-2
 1.742507950000000E9     7.682328618356540E-3    2.446945299006457E-2   -5.542863396695315E-2    7.775501171595696E-2   -5.547919186119705E-2    8.333026466684562E-2   -1.875900906304091E-1   -1.364479475619215E-1
 1.785007900000000E9     1.806896287453924E-2    2.423016049192285E-2   -4.484888816016375E-2    7.664555523427170E-2   -3.648538614960881E-2    7.508349061887308E-2   -2.583195745180371E-1    1.929118698273409E-4
 1.827507850000000E9     2.149631057456792E-2    1.082463773503350E-2   -4.539564180900216E-2    8.369537510070132E-2   -3.751676587680652E-2    7.833085721917053E-2   -1.803080271903612E-1    2.118664868286518E-3
 1.870007800000000E9     1.945026983720003E-2    1.235768673607191E-2   -3.174307810822494E-2    9.232035961099594E-2   -3.127480880037382E-2    8.447672812794009E-2   -1.641870353083893E-1   -1.501705624417146E-2
 1.912507750000000E9     1.847467305836344E-2    1.469059118186839E-2   -2.343581304886595E-2    8.822940520036092E-2   -2.176910903085880E-2    8.655135191151006E-2   -1.596701250498928E-1   -1.797067151965821E-2
 1.955007700000000E9     1.890505567600591E-2    1.501507428330821E-2   -1.362323374126908E-2    8.911399513782617E-2   -1.396413039851968E-2    8.759436404246686E-2   -1.649697780247061E-1   -2.260515926208090E-2
 1.997507650000000E9     1.558192660969700E-2    1.776362328046636E-2   -1.016518508108686E-2    9.073242414384064E-2   -6.426126106627488E-3    8.935511438938976E-2   -1.650630974132483E-1   -2.137179298008604E-2
 2.040007600000000E9     1.542459121283056E-2    1.509248403085716E-2    2.945511063110739E-3    9.325675066679578E-2    3.505365835906576E-3    9.038552187448469E-2   -1.663406963781800E-1   -1.601805990137898E-2
 2.082507550000000E9     1.918515507041999E-2    1.635495602385781E-2    1.149296975978443E-2    9.144001067907156E-2    1.286218092370149E-2    8.917676496714971E-2   -1.706495848863230E-1   -1.724078452086079E-2
 2.125007500000000E9     2.251972197218461E-2    1.133111521893782E-2    1.814772004450575E-2    9.093030701651489E-2    2.079140186017526E-2    8.672238391256726E-2   -1.721794960546412E-1   -1.174367850251751E-2
 2.167507450000000E9     2.351038291198818E-2    1.266824603478708E-2    3.104936415525767E-2    8.806803844435142E-2    2.902104008026222E-2    8.515584580977899E-2   -1.719436799261501E-1   -1.317045313413978E-2
 2.210007400000000E9     2.159810702853559E-2    1.093980931207031E-2    3.893598966144607E-2    8.310004340983307E-2    3.757416842312247E-2    8.101899836780611E-2   -1.751935819858219E-1   -6.204719234204709E-3
 2.252507350000000E9     2.590384421881570E-2    1.330234294228430E-2    4.346012482096815E-2    7.792026430058234E-2    4.552278782152093E-2    7.779097894006479E-2   -1.792600141406795E-1   -6.486478645886102E-3
 2.295007300000000E9     2.798403601421005E-2    9.592745114260295E-3    5.225077074475445E-2    7.838477757846186E-2    5.222445873348486E-2    7.205791071258003E-2   -1.769841971132427E-1   -1.275764097809503E-3
 2.337507250000000E9     2.811639359223302E-2    9.460962666841963E-3    6.027497200285581E-2    7.011527409990001E-2    5.912965813587307E-2    6.611176447705921E-2   -1.815265680125176E-1    7.172979015587937E-3
 2.380007200000000E9     2.986322492261801E-2    1.276806548865555E-2    6.766796367503398E-2    6.283124265619187E-2    6.542407409592840E-2    6.025604197566310E-2   -1.808602547408706E-1    9.266759813352728E-3
 2.422507150000000E9     3.348860047787581E-2    8.401804126674194E-3    7.177224571824341E-2    5.694453600843757E-2    7.110989776417426E-2    5.404061161920200E-2   -1.813049586386126E-1    1.092107999753988E-2
 2.465007100000000E9     3.158998070401606E-2    7.458651450465052E-3    7.934962404032241E-2    4.669046723797170E-2    7.544624366739423E-2    4.585712927321235E-2   -1.821421174890949E-1    1.828400175306027E-2
 2.507507050000000E9     3.060538877641212E-2    6.628196553466591E-3    8.111976236666803E-2    3.963169073159801E-2    8.019653079518634E-2    3.902332276055813E-2   -1.828163472371752E-1    1.795906186232490E-2
 2.550007000000000E9     3.276330547926503E-2    4.999874575639987E-3    8.303654637889218E-2    3.050039963695448E-2    8.323559850139363E-2    3.025374598628281E-2   -1.834383265827761E-1    2.374468502166922E-2
 2.592506950000000E9     3.287662550985325E-2    1.901981852360084E-3    8.532446731873772E-2    2.433900406582108E-2    8.594176174224667E-2    2.243994151627028E-2   -1.877854679752952E-1    3.002734396183394E-2
 2.635006900000000E9     3.483374818838025E-2    5.332712096654656E-3    9.012452647722104E-2    1.585133342134754E-2    8.757939811412979E-2    1.373330545711113E-2   -1.816434486524938E-1    3.288739485797280E-2
 2.677506850000000E9     3.388571019865497E-2    1.088689259850599E-3    9.033730337983926E-2    3.519057237222050E-3    8.805523627349157E-2    5.085754599567641E-3   -1.819903134912713E-1    3.725146873206339E-2
 2.720006800000000E9     3.258707491898045E-2    1.548888958629318E-3    9.482104680394475E-2   -3.952827993147117E-3    8.762068118153991E-2   -3.387161477970753E-3   -1.857704567894127E-1    3.905704066524706E-2
 2.762506750000000E9     3.159432995189371E-2   -6.851602227929115E-3    8.919153885776125E-2   -1.567507607108650E-2    8.721698516554821E-2   -1.265958899893539E-2   -1.823393464622622E-1    4.195366345235226E-2
 2.805006700000000E9     3.333743985719007E-2   -8.042560116517524E-3    8.660760065092828E-2   -2.134364474575948E-2    8.499979665839701E-2   -2.131445758691473E-2   -1.887709543189038E-1    4.950774783603585E-2
 2.847506650000000E9     3.504693550944520E-2   -7.505832817496506E-3    8.334533407199857E-2   -2.946890462500494E-2    8.251017144272349E-2   -2.940380772465800E-2   -1.823275691547644E-1    5.106743967027255E-2
 2.890006600000000E9     2.954042152510179E-2   -8.958662993007868E-3    7.971904150976043E-2   -3.723552746370315E-2    7.906857548031231E-2   -3.707448324210424E-2   -1.852899555822159E-1    5.772555108111253E-2
 2.932506550000000E9     2.736885171143912E-2   -1.044935515934280E-2    7.559811917781370E-2   -4.535816312313707E-2    7.529533106458502E-2   -4.463489090115838E-2   -1.857613995915666E-1    5.610602052881087E-2
 2.975006500000000E9     3.049556118044399E-2   -9.483595277946812E-3    7.117830590016981E-2   -5.258871669431086E-2    6.998705130123119E-2   -5.250921487459750E-2   -1.847197939406245E-1    6.340787100281521E-2
 3.017506450000000E9     2.717230541191961E-2   -1.407985815794356E-2    6.521271534604624E-2   -5.936649914380802E-2    6.455329933087316E-2   -5.858525075894498E-2   -1.867550850909714E-1    6.559628012897883E-2
 3.060006400000000E9     2.279160095659765E-2   -1.718389646839849E-2    5.841188355878231E-2   -6.540227242183667E-2    5.849292407786936E-2   -6.395881074405055E-2   -1.853694464590522E-1    6.597710904942986E-2
 3.102506350000000E9     2.351221237386228E-2   -1.687521525507989E-2    5.259045930676252E-2   -7.091052160688717E-2    5.163320654395426E-2   -6.965380277049843E-2   -1.781858789649184E-1    6.755472231601677E-2
 3.145006300000000E9     1.801563474133172E-2   -2.331309210648090E-2    4.422964103857058E-2   -7.513746309224603E-2    4.432782687846611E-2   -7.374134118540837E-2   -1.811033613351751E-1    7.513626475989833E-2
 3.187506250000000E9     2.063063260663320E-2   -1.744396634627815E-2    3.637428401209067E-2   -7.966165522319020E-2    3.597472797076141E-2   -7.834849566078478E-2   -1.794480301426754E-1    7.989751198247071E-2
 3.230006200000000E9     2.052398887558519E-2   -2.188530898889506E-2    2.845168314023133E-2   -8.219690682449116E-2    2.836839720432855E-2   -8.081718564947538E-2   -1.813950584348689E-1    8.014932976050136E-2
 3.272506150000000E9     1.940227340605538E-2   -2.194694962892227E-2    2.051074900513588E-2   -8.432599733912223E-2    2.046817139654870E-2   -8.255260403424283E-2   -1.775185487588703E-1    8.057647794557045E-2
 3.315006100000000E9     1.379507883477293E-2   -2.463123263305633E-2    1.145123205818019E-2   -8.535100152923673E-2    1.198098623825099E-2   -8.435322280449999E-2   -1.792962455499108E-1    8.404794975855662E-2
 3.357506050000000E9     1.246467490040343E-2   -2.603321968160024E-2    3.618564011325699E-3   -8.575897711367525E-2    4.024730188571652E-3   -8.544410842714281E-2   -1.728397165313115E-1    8.289910892386940E-2
 3.400006000000000E9     7.474394703236503E-3   -2.448821329933289E-2   -5.007022285701403E-3   -8.507484428196310E-2   -4.134469776488321E-3   -8.483535286409452E-2   -1.730150108220242E-1    8.692926632006168E-2
 3.442505950000000E9     7.137190150712463E-3   -2.351476006676135E-2   -1.348751726809166E-2   -8.427008663928549E-2   -1.259644906276948E-2   -8.364695992737946E-2   -1.764963655617862E-1    9.489957190993842E-2
 3.485005900000000E9     7.409158192329726E-3   -2.750690094041783E-2   -2.145754808925100E-2   -8.204148885995217E-2   -2.119953258523179E-2   -8.137711434594527E-2   -1.676078583157737E-1    9.655984717644170E-2
 3.527505850000000E9     2.945017101110869E-3   -2.963649617319598E-2   -2.929959518003901E-2   -7.976652826782273E-2   -2.861236367115161E-2   -7.864638885087766E-2   -1.682038455607357E-1    9.289389836638454E-2
 3.570005800000000E9     1.766830796704981E-3   -3.388376946586357E-2   -3.659318822475820E-2   -7.665996456364189E-2   -3.604052208771885E-2   -7.545804838631513E-2   -1.674412718649749E-1    9.744465752291234E-2
 3.612505750000000E9     2.129712197986564E-3   -2.617705837860349E-2   -4.352634989303893E-2   -7.236407758613571E-2   -4.305327391170784E-2   -7.114931128713418E-2   -1.654919438379908E-1    1.090704383044404E-1
 3.655005700000000E9    -9.750786010203594E-3   -2.814320745042994E-2   -4.996359466368915E-2   -6.745258711481883E-2   -4.960711824497058E-2   -6.690509492081116E-2   -1.675256301424016E-1    1.106910821552561E-1
 3.697505650000000E9    -1.742020092394538E-2   -2.522039388004414E-2   -5.701684807638950E-2   -6.185697223176502E-2   -5.579643870781539E-2   -6.257974601905578E-2   -1.643812409039289E-1    1.161248272180956E-1
 3.740005600000000E9    -1.264917467316487E-2   -2.505132054407999E-2   -6.229513571432561E-2   -5.664233553216719E-2   -6.156247727947667E-2   -5.642986748652243E-2   -1.627669123747405E-1    1.164391621003169E-1
 3.782505550000000E9    -1.907804799104433E-2   -2.057180926171010E-2   -6.775203257015439E-2   -4.992747168705627E-2   -6.685110757121385E-2   -4.988677451726112E-2   -1.569409300669537E-1    1.163077993783511E-1
 3.825005500000000E9    -2.304386998707312E-2   -1.880104698743061E-2   -7.216535840318167E-2   -4.246744471423898E-2   -7.092217108196389E-2   -4.342512424844434E-2   -1.626182133067254E-1    1.226619089747199E-1
