#  HZ   S   RI   R     50.00 
! Rohde & Schwarz Vector Network Analyzer 
! Rohde-Schwarz,ZNB8-4Port,REDACTED,3.12
! Created: UTC 3/23/2026, 9:50:24 PM
! VAT-30+
! freq[Hz]                re:S11                  im:S11                  re:S21                  im:S21                  re:S12                  im:S12                  re:S22                  im:S22
 1.000000000000000E4     1.268992242809715E-2   -3.030852353546810E-2    3.124709853594983E-2   -1.752729447767815E-4    3.115370420526336E-2    1.853039171564081E-3    1.410653599866541E-2    9.689809320848276E-3
 4.250995000000000E7    -3.843919930026838E-3    2.265930271393392E-3    3.108662875799341E-2   -3.448348967633874E-3    3.106374253227868E-2   -3.276124023960431E-3    1.078513207594038E-2   -3.592375269394567E-3
 8.500990000000000E7    -3.461633322741968E-3    4.021426332791102E-3    3.061438167868128E-2   -6.687449919888507E-3    3.055259437200999E-2   -6.776905940757213E-3    1.135264527910611E-2   -1.363034606572736E-2
 1.275098500000000E8    -3.909347440806499E-4    3.057434739813339E-3    2.964908050445831E-2   -1.010551842788798E-2    2.936597550865406E-2   -9.863317701651497E-3    7.864046902810578E-3   -1.557998880864323E-2
 1.700098000000000E8    -1.790096528731746E-3    5.103834723113059E-3    2.822289725866898E-2   -1.267053240298039E-2    2.809840461117306E-2   -1.269498886163811E-2    7.445956121334363E-3   -2.249008099342249E-2
 2.125097500000000E8     3.257651253156620E-3    8.023327654276446E-3    2.668787575594583E-2   -1.581548985002728E-2    2.707554042408452E-2   -1.547956182525852E-2    6.522261335398416E-3   -2.564855973139848E-2
 2.550097000000000E8    -4.797943395662642E-3    6.037830769076702E-3    2.476541490303298E-2   -1.846943501130056E-2    2.462255467870703E-2   -1.827056959057353E-2   -2.407993865870772E-4   -2.895012105837479E-2
 2.975096500000000E8     4.648861669736519E-4    5.032933489557124E-3    2.264840159814769E-2   -2.093112753778039E-2    2.269287282214089E-2   -2.082817163626200E-2    4.405156487446081E-4   -3.545612406051949E-2
 3.400096000000000E8     1.669788114361033E-3    6.925266883627533E-3    2.045462508623872E-2   -2.355105895406492E-2    2.066417718614407E-2   -2.315308799125600E-2    1.056059118650594E-3   -4.360560003985466E-2
 3.825095500000000E8     3.662709312780265E-3    1.135440575986645E-2    1.773492038603131E-2   -2.503510416367272E-2    1.819410621053335E-2   -2.517008726156735E-2   -4.769640585720812E-3   -4.832014081503910E-2
 4.250095000000000E8     4.528782793567123E-3    9.336582186527482E-3    1.506167497339677E-2   -2.722133578168748E-2    1.478438767230901E-2   -2.717673723277890E-2   -7.242354602974453E-3   -4.918122727828306E-2
 4.675094500000000E8     3.591433831364451E-3    5.268165768851066E-3    1.220740013531051E-2   -2.815432004327848E-2    1.186641586786838E-2   -2.816029583853416E-2   -8.647813396930210E-3   -5.572752064265999E-2
 5.100094000000000E8     2.555877199720253E-3    9.094042552894864E-3    9.378988381926332E-3   -2.911965509489756E-2    9.542911488244167E-3   -2.922906915449506E-2   -9.829465996147134E-3   -5.544269556979531E-2
 5.525093500000000E8     9.535915710544853E-3    8.733928260325968E-3    6.408003807268975E-3   -2.964784570143008E-2    6.199010677635799E-3   -2.981991693936990E-2   -1.714893530144774E-2   -6.247435716284587E-2
 5.950093000000000E8     8.851552432565756E-3    7.448756244486717E-3    3.297773952398626E-3   -3.061337087080348E-2    2.788660024219802E-3   -3.036906245648223E-2   -1.997503191046109E-2   -6.192188973172147E-2
 6.375092500000000E8     1.012830654762081E-2    9.626286498181789E-3   -1.204035306733042E-4   -3.033805732159776E-2   -5.041437376912782E-4   -2.984298824070971E-2   -2.540189167481941E-2   -7.138817527796743E-2
 6.800092000000000E8     6.126902700022994E-3    7.610985218462082E-3   -3.231354030503445E-3   -3.053931642547729E-2   -2.978246690024458E-3   -3.021703494299063E-2   -2.764536168967755E-2   -7.680834399981280E-2
 7.225091500000000E8     1.077276170516787E-2    5.812438571165055E-3   -6.481868229784689E-3   -2.961264878168133E-2   -6.709303490597877E-3   -2.997514288873186E-2   -3.222281880456308E-2   -7.649865211984218E-2
 7.650091000000000E8     1.221755444355742E-2    6.777343709343311E-3   -9.513733967435023E-3   -2.878429038711100E-2   -9.126574707659029E-3   -2.833700831078597E-2   -3.858891055605902E-2   -7.857046120938471E-2
 8.075090500000000E8     1.080089382895182E-2    1.044803941792581E-2   -1.240660194652116E-2   -2.757948860248511E-2   -1.209598529784138E-2   -2.770689211576620E-2   -4.041643159367983E-2   -8.240495104040235E-2
 8.500090000000000E8     9.037810185987852E-3    4.807276948625745E-3   -1.492648768124216E-2   -2.625651321752919E-2   -1.485936827847276E-2   -2.625056393388885E-2   -4.746217451857810E-2   -8.397308558399529E-2
 8.925089500000000E8     1.025686641802167E-2    6.580985322082460E-3   -1.710075061195464E-2   -2.432593789141744E-2   -1.779690473007788E-2   -2.449371183765810E-2   -5.141374366010340E-2   -8.710008751779268E-2
 9.350089000000000E8     1.341816354252501E-2    3.659779122943166E-3   -1.957150691255081E-2   -2.228238469274388E-2   -2.001743223753372E-2   -2.191880718626641E-2   -5.645979131033505E-2   -9.158858610165690E-2
 9.775088500000000E8     1.404614108598205E-2    2.569036662976856E-3   -2.188971746450998E-2   -1.996262613425812E-2   -2.189299108416748E-2   -2.035216987197315E-2   -6.305174295645435E-2   -8.860292002738386E-2
 1.020008800000000E9     1.350170130124647E-2    3.657865349900911E-3   -2.429515387836376E-2   -1.808054487424174E-2   -2.380885576139281E-2   -1.780927116506187E-2   -6.540864785561211E-2   -9.490178473593983E-2
 1.062508750000000E9     1.469180846428364E-2    1.518872289317908E-3   -2.579155373084262E-2   -1.467528825492612E-2   -2.611032672326822E-2   -1.553936628005167E-2   -7.129150286774072E-2   -9.507443628697880E-2
 1.105008700000000E9     1.127585912644911E-2    3.105032636734443E-3   -2.712952960571893E-2   -1.207503549806514E-2   -2.675696333942534E-2   -1.255152198697472E-2   -7.893052466109127E-2   -9.336979845269781E-2
 1.147508650000000E9     1.197732757863057E-2    1.807130614699876E-3   -2.853659336562649E-2   -9.544759693686284E-3   -2.778538792278660E-2   -9.763161353553993E-3   -7.931135753101412E-2   -9.470741305933005E-2
 1.190008600000000E9     1.314761539609132E-2    8.246321304806154E-4   -2.872222217010881E-2   -6.609849782956419E-3   -2.913021474588094E-2   -6.245941946453331E-3   -8.795444411604349E-2   -9.867823090724212E-2
 1.232508550000000E9     1.075867480953501E-2   -1.186695928814383E-3   -2.899372145215422E-2   -3.150552765525427E-3   -2.885306982454296E-2   -3.491280539427403E-3   -9.279332752320779E-2   -9.801283783304027E-2
 1.275008500000000E9     1.048105263099863E-2   -2.025783592251882E-3   -2.938750202141342E-2   -5.276375913886074E-4   -2.999320189207633E-2   -3.540858552806768E-4   -9.737249091197711E-2   -9.563639941429283E-2
 1.317508450000000E9     1.349659824357107E-2    9.987920166194320E-4   -2.914138213376353E-2    2.561378785628785E-3   -2.957649689893916E-2    2.588166721067264E-3   -1.038013582338597E-1   -9.785978871347860E-2
 1.360008400000000E9     1.286426013325086E-2    1.891875168562234E-3   -2.820198620772367E-2    5.527120424466759E-3   -2.900075327865691E-2    4.949473142456882E-3   -1.068147544931008E-1   -9.300947046255194E-2
 1.402508350000000E9     8.633625776779515E-3    3.755298769222825E-4   -2.792425871118166E-2    8.434542841840123E-3   -2.789553140916836E-2    8.488927904091600E-3   -1.150837938207969E-1   -9.427666914946310E-2
 1.445008300000000E9     9.890614469447709E-3   -2.378268635646240E-3   -2.705380597650182E-2    1.177121552481102E-2   -2.720400379280472E-2    1.091059045046792E-2   -1.191494826789587E-1   -9.882188959933189E-2
 1.487508250000000E9     7.666466741699039E-3    2.860594298513617E-3   -2.551620934327820E-2    1.375784014271577E-2   -2.596475365736875E-2    1.373029944715200E-2   -1.255496088555565E-1   -9.279670799395932E-2
 1.530008200000000E9     6.959319662169264E-3   -5.549468986211086E-4   -2.375495163163124E-2    1.676764586844026E-2   -2.442157117876783E-2    1.639817423943403E-2   -1.298795686193408E-1   -9.639857487670628E-2
 1.572508150000000E9     7.466297669692003E-3   -3.866979865547243E-4   -2.214725786005750E-2    1.905026629931714E-2   -2.229158958947323E-2    1.933233152992341E-2   -1.391670628802041E-1   -9.495362195752809E-2
 1.615008100000000E9     6.476779322819036E-3   -1.547158817690039E-3   -1.969748520004610E-2    2.141901334536545E-2   -2.039017458744660E-2    2.151440545536317E-2   -1.439089739893815E-1   -9.724762575674392E-2
 1.657508050000000E9     4.344063502970428E-3    3.335905715336059E-3   -1.687085819527898E-2    2.270352112401828E-2   -1.791667778438751E-2    2.393582916026459E-2   -1.437674524185560E-1   -1.024144689207771E-1
 1.700008000000000E9     5.909128733987737E-3    2.407463892601572E-3   -1.531168464360221E-2    2.463270205989868E-2   -1.554957516180783E-2    2.586287895929081E-2   -1.596722981543868E-1   -1.164700281024897E-1
 1.742507950000000E9     6.831169956817868E-3    3.092389560590777E-3   -1.276485665042754E-2    2.649560110556155E-2   -1.137778319161072E-2    2.954902792015038E-2   -2.077570920069052E-1   -1.621031840618037E-1
 1.785007900000000E9    -2.945669126021297E-3    2.139651116424872E-3   -9.233331629278309E-3    2.641437060462552E-2   -5.809948919378751E-3    2.499844187939866E-2   -2.940332133771830E-1   -3.830247912183846E-3
 1.827507850000000E9     2.911222707876593E-3    2.509023885385998E-3   -7.067392580204887E-3    2.749802255759571E-2   -6.413645420796148E-3    2.573094066891930E-2   -2.033937404686715E-1   -6.754033932601040E-3
 1.870007800000000E9    -2.194321072087286E-3    1.108049781434432E-3   -4.166665019447308E-3    2.874920566983313E-2   -4.073617780429474E-3    2.737404194053251E-2   -1.870872223673933E-1   -2.123682741115871E-2
 1.912507750000000E9     9.548781420319983E-4    7.795048635849093E-3   -9.799402522412991E-4    2.873436629913099E-2   -7.048803696935383E-4    2.739803055698144E-2   -1.831080777254920E-1   -2.919270407785690E-2
 1.955007700000000E9     1.348511487791206E-3    6.567197973963558E-3    1.777879884168922E-3    2.824630082885115E-2    1.860858973033892E-3    2.726839295448373E-2   -1.889095343135345E-1   -3.049045823316983E-2
 1.997507650000000E9    -1.809099083189265E-3    2.410311457711250E-3    4.885368237681258E-3    2.823436956316737E-2    4.841863134162792E-3    2.766586262318818E-2   -1.885557356248868E-1   -2.525853863701835E-2
 2.040007600000000E9    -1.420063670375359E-4    7.259836617070095E-3    7.737523742743016E-3    2.790548817311004E-2    7.428311452114047E-3    2.698832787162218E-2   -1.897740017319333E-1   -2.075344531318792E-2
 2.082507550000000E9     1.229913966020226E-3    3.884229347929189E-3    1.032611598106700E-2    2.561661421890065E-2    1.066827989141169E-2    2.523307430779760E-2   -1.904331540131227E-1   -1.878019408776051E-2
 2.125007500000000E9     7.594204559487532E-4    7.614088576948912E-3    1.286194645697416E-2    2.493582807293555E-2    1.259093649378421E-2    2.466820146236245E-2   -1.957951157940825E-1   -1.598036744646245E-2
 2.167507450000000E9     5.650683093920323E-3    1.060998900079728E-2    1.558031550201490E-2    2.366399707200414E-2    1.500497902306815E-2    2.325465157368698E-2   -2.009401950535757E-1   -1.433375485763368E-2
 2.210007400000000E9    -5.797926720861447E-4    6.529383491688557E-3    1.776751421274459E-2    2.202863109982897E-2    1.781995294514818E-2    2.100812455732997E-2   -1.991878422291124E-1   -5.820790180923213E-3
 2.252507350000000E9     1.842337645261421E-3    7.917300615122269E-3    1.979725526612508E-2    1.940607068028706E-2    1.919293276303465E-2    1.946058877239992E-2   -2.027247697327432E-1   -7.032312032312477E-3
 2.295007300000000E9     2.059432147393745E-3    1.061843491647913E-2    2.133849119777857E-2    1.732252713556797E-2    2.125903788136243E-2    1.707516248851858E-2   -2.059758580519936E-1    4.585868697117263E-3
 2.337507250000000E9     5.975690656617571E-3    1.334918491273937E-2    2.312382551594936E-2    1.500964765279005E-2    2.292641117918925E-2    1.487260608281279E-2   -2.033436088622892E-1    1.150302999321283E-2
 2.380007200000000E9     7.711950623619761E-3    1.744959452981010E-2    2.438465380878506E-2    1.286200234366017E-2    2.449580440379341E-2    1.250584244010991E-2   -2.043648520134864E-1    1.750487765365168E-2
 2.422507150000000E9     7.920923302957225E-3    1.870901491250818E-2    2.581766019578419E-2    1.021452805677022E-2    2.556658073965471E-2    9.752273626300814E-3   -2.056758092159328E-1    1.875895033282083E-2
 2.465007100000000E9     8.646718350915043E-3    1.545781376681137E-2    2.671610553046224E-2    7.001001475493406E-3    2.603035790979285E-2    6.638410448856290E-3   -2.034013629266763E-1    2.403524362369507E-2
 2.507507050000000E9     7.024200713682733E-3    1.570009981558069E-2    2.725862754988524E-2    4.563815928903043E-3    2.669034377578045E-2    4.286450664930966E-3   -2.075101518591869E-1    3.067591804814775E-2
 2.550007000000000E9     9.967083060781461E-3    1.580132456113784E-2    2.713598784419708E-2    8.578181419045386E-4    2.737499918406986E-2    1.251307065603636E-3   -2.058803273806775E-1    3.480065003713393E-2
 2.592506950000000E9     9.362036561191675E-3    1.986484510143846E-2    2.703920139095286E-2   -1.690854988561425E-3    2.726259620190910E-2   -1.543632714505244E-3   -2.096579244949522E-1    4.214475227788111E-2
 2.635006900000000E9     1.296370275847483E-2    1.697341277771977E-2    2.727843174652190E-2   -4.215924699919257E-3    2.676664067507663E-2   -3.792110832998392E-3   -2.077897033836154E-1    4.797530473745826E-2
 2.677506850000000E9     1.165407497244310E-2    2.376383786503409E-2    2.659856335066084E-2   -7.446119081360149E-3    2.628245589333069E-2   -6.372374819224278E-3   -2.039278170651000E-1    5.138404747566598E-2
 2.720006800000000E9     1.428258943702838E-2    1.923355125212504E-2    2.525757912313558E-2   -9.753830030723427E-3    2.489018673016812E-2   -9.347282669656518E-3   -2.057719724170781E-1    5.807047871718514E-2
 2.762506750000000E9     1.245709358609426E-2    1.647465447204631E-2    2.461763933268772E-2   -1.173629796510157E-2    2.407416415405108E-2   -1.186260326866992E-2   -2.045380292695146E-1    6.208503174969111E-2
 2.805006700000000E9     1.393414186117631E-2    1.898935122874165E-2    2.299846660316972E-2   -1.490515322153092E-2    2.289402954142970E-2   -1.444917320518211E-2   -1.982658164765224E-1    7.176175033196049E-2
 2.847506650000000E9     1.534699733050184E-2    1.785242601299378E-2    2.085191042642539E-2   -1.687997566369799E-2    2.092824376894828E-2   -1.664632189315672E-2   -2.023626352428830E-1    7.676100541031748E-2
 2.890006600000000E9     1.578535740585051E-2    1.378412610489156E-2    1.947348823272434E-2   -1.892498436944256E-2    1.888817414799875E-2   -1.867055003750507E-2   -1.934948497428947E-1    7.976531027973398E-2
 2.932506550000000E9     2.055358592273203E-2    1.750667990735554E-2    1.702407022606175E-2   -2.080501524962613E-2    1.756128109810818E-2   -2.090490317027730E-2   -2.006514624829492E-1    8.340753037541432E-2
 2.975006500000000E9     2.445631438369418E-2    1.409736236894987E-2    1.495327601639287E-2   -2.246997497434500E-2    1.442273234813901E-2   -2.176552092775559E-2   -1.958644269686850E-1    8.560106821315075E-2
 3.017506450000000E9     2.334143044638265E-2    1.683201706749194E-2    1.217884826323867E-2   -2.330614169054989E-2    1.234750745299715E-2   -2.320624485026929E-2   -1.919473222684660E-1    9.237771794929636E-2
 3.060006400000000E9     2.137773405547443E-2    1.203652068134655E-2    9.578123455604099E-3   -2.496574839351083E-2    9.912481730480680E-3   -2.486410973342720E-2   -1.906114689938357E-1    9.509433700858201E-2
 3.102506350000000E9     2.413279351097132E-2    1.506566177973628E-2    7.073906272395194E-3   -2.563195417622166E-2    7.177629848806578E-3   -2.536820949681626E-2   -1.912276617390309E-1    1.033402780727048E-1
 3.145006300000000E9     2.640480076203979E-2    1.308213793738568E-2    4.540458093752722E-3   -2.581671864574000E-2    4.298244681994058E-3   -2.558805555141093E-2   -1.827331387562520E-1    1.046724139348612E-1
 3.187506250000000E9     2.517476148548767E-2    9.820201930040710E-3    2.009706961280661E-3   -2.647434899812151E-2    1.770178746182936E-3   -2.608329612853360E-2   -1.769801280413180E-1    1.052781211355279E-1
 3.230006200000000E9     2.664429606376473E-2    9.937059952293504E-3   -1.057710219584240E-3   -2.663637720085709E-2   -1.054651798816815E-3   -2.656300445490283E-2   -1.812940296098274E-1    1.093323556192280E-1
 3.272506150000000E9     2.533790802385363E-2    5.796748882827202E-3   -3.847731171346072E-3   -2.665348688916587E-2   -3.803333787602049E-3   -2.575107645122204E-2   -1.777524216778861E-1    1.151246591305111E-1
 3.315006100000000E9     2.986129750838996E-2    6.302304806814729E-3   -6.602335463067451E-3   -2.521926281040709E-2   -6.217089944481962E-3   -2.509589084073819E-2   -1.684986168857373E-1    1.215912518540950E-1
 3.357506050000000E9     2.764208327345335E-2    6.661437900692940E-3   -8.911711748887134E-3   -2.488701041044246E-2   -8.531926053197695E-3   -2.407409454642848E-2   -1.690564570167917E-1    1.194413579653490E-1
 3.400006000000000E9     2.774346736048188E-2    3.217174544269316E-3   -1.151976504381243E-2   -2.385548509904235E-2   -1.127481987936314E-2   -2.301347020065781E-2   -1.604797316065898E-1    1.245503972146467E-1
 3.442505950000000E9     2.799953216348429E-2    2.201773149513708E-3   -1.370621505940299E-2   -2.202248030049122E-2   -1.346245001593243E-2   -2.217792983819305E-2   -1.576478222581561E-1    1.293663474992584E-1
 3.485005900000000E9     2.978161823670323E-2    1.438166932001315E-3   -1.627940877753241E-2   -1.998587733989857E-2   -1.537723008976429E-2   -2.065794825360774E-2   -1.553024125906410E-1    1.244560309388411E-1
 3.527505850000000E9     2.777195068636222E-2    1.209670591935269E-4   -1.865299133247439E-2   -1.827532392202831E-2   -1.737735402276421E-2   -1.910779108906899E-2   -1.541190240371649E-1    1.269979748638563E-1
 3.570005800000000E9     2.642519122390578E-2   -4.399834255984576E-3   -1.975672130855565E-2   -1.661704662746850E-2   -1.962843466504805E-2   -1.627686290294117E-2   -1.426549654555200E-1    1.346435477681082E-1
 3.612505750000000E9     2.546373983939451E-2   -6.036797095572415E-3   -2.145182042879320E-2   -1.427387157550781E-2   -2.127717411718848E-2   -1.439235161068172E-2   -1.420876725974148E-1    1.310252558321994E-1
 3.655005700000000E9     2.656476107972375E-2   -6.667743188412507E-3   -2.272473371309378E-2   -1.207875614082116E-2   -2.243643503190376E-2   -1.225601782436556E-2   -1.416438078296457E-1    1.315867160631207E-1
 3.697505650000000E9     2.257826349627381E-2   -8.728756626126937E-3   -2.387848582560859E-2   -9.466721746832593E-3   -2.279793564210409E-2   -1.019379301875352E-2   -1.369339942592612E-1    1.384563357338878E-1
 3.740005600000000E9     2.447422194337855E-2   -1.119268787192217E-2   -2.473823653545953E-2   -6.896032544822754E-3   -2.434875416278456E-2   -7.191547880210499E-3   -1.312729206706008E-1    1.350719380504863E-1
 3.782505550000000E9     2.194966609581209E-2   -1.174541760642137E-2   -2.509549409906421E-2   -4.559609423987708E-3   -2.490403788559257E-2   -5.134542482029689E-3   -1.308724277538042E-1    1.378809383555843E-1
 3.825005500000000E9     2.155544398403610E-2   -1.581905830135695E-2   -2.596014892790872E-2   -1.904310997261755E-3   -2.545885711012723E-2   -1.851508246351138E-3   -1.323408139641183E-1    1.416450487056551E-1
