#  HZ   S   RI   R     50.00 
! Rohde & Schwarz Vector Network Analyzer 
! Rohde-Schwarz,ZNB8-4Port,REDACTED,3.12
! Created: UTC 3/17/2026, 6:26:27 PM
! zx75bp-1450-s
! freq[Hz]                re:S11                  im:S11
 4.200000010000000E8    -7.794458955257219E-1   -5.175846871652495E-1
 4.300000010000000E8    -9.087593095837719E-1   -2.147090520924743E-1
 4.400000010000000E8    -9.252442502142725E-1    1.128369209291627E-1
 4.500000010000000E8    -8.282659145140311E-1    4.251759012960889E-1
 4.600000010000000E8    -6.299927909066489E-1    6.845082494130434E-1
 4.700000010000000E8    -3.552775142829849E-1    8.591137021029644E-1
 4.800000010000000E8    -3.765875839155895E-2    9.294788536891584E-1
 4.900000010000000E8     2.848833798075032E-1    8.861385198469865E-1
 5.000000010000000E8     5.731100459916593E-1    7.343566238419633E-1
 5.100000010000000E8     7.914937067147773E-1    4.924155418030547E-1
 5.200000010000000E8     9.138405568736713E-1    1.897869924081505E-1
 5.300000010000000E8     9.237071026990498E-1   -1.372584362981470E-1
 5.400000010000000E8     8.196848758230917E-1   -4.477961025972910E-1
 5.500000010000000E8     6.144953177545047E-1   -7.031833117143376E-1
 5.600000010000000E8     3.329448736416566E-1   -8.713377013074983E-1
 5.700000010000000E8     1.083124074721217E-2   -9.312171238738683E-1
 5.800000010000000E8    -3.116489973280606E-1   -8.754846108231825E-1
 5.900000010000000E8    -5.938375062729566E-1   -7.117761494492459E-1
 6.000000010000000E8    -8.015503099357851E-1   -4.606365419357957E-1
 6.100000010000000E8    -9.089944741590448E-1   -1.540373634313115E-1
 6.200000010000000E8    -9.041036612251010E-1    1.698427366842920E-1
 6.300000010000000E8    -7.881337599739844E-1    4.715788728758757E-1
 6.400000010000000E8    -5.757165833836527E-1    7.144381976406251E-1
 6.500000010000000E8    -2.929614114106183E-1    8.694830436522382E-1
 6.600000010000000E8     2.564617974496655E-2    9.175857278002043E-1
 6.700000010000000E8     3.415916589451640E-1    8.529055612477475E-1
 6.800000010000000E8     6.159833538839041E-1    6.834194593842449E-1
 6.900000010000000E8     8.153154012598297E-1    4.290699033800451E-1
 7.000000010000000E8     9.144952539668200E-1    1.206585909677686E-1
 7.100000010000000E8     9.007358089059685E-1   -2.037951341830508E-1
 7.200000010000000E8     7.741490926590218E-1   -5.040038775742774E-1
 7.300000010000000E8     5.505418060559939E-1   -7.415033308340087E-1
 7.400000010000000E8     2.572229026670815E-1   -8.860366978949173E-1
 7.500000010000000E8    -6.830924345633536E-2   -9.183222350162300E-1
 7.600000010000000E8    -3.846408196355923E-1   -8.345626314293069E-1
 7.700000010000000E8    -6.511267423685225E-1   -6.449718756932828E-1
 7.800000010000000E8    -8.339802096564882E-1   -3.740358919453025E-1
 7.900000010000000E8    -9.097004091010985E-1   -5.607241853682955E-2
 8.000000010000000E8    -8.691329940728511E-1    2.679973101067549E-1
 8.100000010000000E8    -7.172860927897420E-1    5.566706662226454E-1
 8.200000010000000E8    -4.738552537156915E-1    7.735066036790126E-1
 8.300000010000000E8    -1.694580585926985E-1    8.908125617786512E-1
 8.400000010000000E8     1.573319187269284E-1    8.932722584671348E-1
 8.500000010000000E8     4.642467876051938E-1    7.799722995839747E-1
 8.600000010000000E8     7.122196893940298E-1    5.647773370327701E-1
 8.700000010000000E8     8.676712398558201E-1    2.741646979885178E-1
 8.800000010000000E8     9.092444215942257E-1   -5.414376782085911E-2
 8.900000010000000E8     8.294470434811471E-1   -3.771518576125458E-1
 9.000000010000000E8     6.375067663599417E-1   -6.504419591942909E-1
 9.100000010000000E8     3.583810019894136E-1   -8.358242554435168E-1
 9.200000010000000E8     2.986498071368808E-2   -9.066058477998021E-1
 9.300000010000000E8    -3.020631510493202E-1   -8.516907964262658E-1
 9.400000010000000E8    -5.908720326854675E-1   -6.785955606495152E-1
 9.500000010000000E8    -7.945948267899169E-1   -4.110038488285271E-1
 9.600000010000000E8    -8.839904332938457E-1   -8.737102541348996E-2
 9.700000010000000E8    -8.459841550833006E-1    2.451835734074400E-1
 9.800000010000000E8    -6.862591197127808E-1    5.367619676874196E-1
 9.900000010000000E8    -4.308393899818219E-1    7.432064553762182E-1
 1.000000001000000E9    -1.220441006142420E-1    8.347795302418438E-1
 1.010000001000000E9     1.889517674256723E-1    8.045560350936741E-1
 1.020000001000000E9     4.577058265077273E-1    6.674631228356923E-1
 1.030000001000000E9     6.547444664994798E-1    4.514948064361117E-1
 1.040000001000000E9     7.638902670036364E-1    1.845995798609819E-1
 1.050000001000000E9     7.722137698950903E-1   -1.032762133445916E-1
 1.060000001000000E9     6.749820869594958E-1   -3.762951649955776E-1
 1.070000001000000E9     4.819162052463523E-1   -5.942190933071534E-1
 1.080000001000000E9     2.206411079792927E-1   -7.219562748539446E-1
 1.090000001000000E9    -6.704495245228503E-2   -7.384534933646877E-1
 1.100000001000000E9    -3.339484213791167E-1   -6.433515309904660E-1
 1.110000001000000E9    -5.378881335267789E-1   -4.576848885576112E-1
 1.120000001000000E9    -6.513558791598051E-1   -2.173927930666392E-1
 1.130000001000000E9    -6.664903044508551E-1    3.723330306470736E-2
 1.140000001000000E9    -5.935820845491703E-1    2.709914339195576E-1
 1.150000001000000E9    -4.479990520811328E-1    4.601483113561638E-1
 1.160000001000000E9    -2.480073902663066E-1    5.864274184939742E-1
 1.170000001000000E9    -1.491766612078503E-2    6.344395259549293E-1
 1.180000001000000E9     2.222522830517795E-1    5.928619502752555E-1
 1.190000001000000E9     4.273562554931265E-1    4.616516420805469E-1
 1.200000001000000E9     5.645939346231864E-1    2.597562249137183E-1
 1.210000001000000E9     6.093091020160148E-1    2.190098230045283E-2
 1.220000001000000E9     5.548888915340177E-1   -2.088056095509717E-1
 1.230000001000000E9     4.159748323830333E-1   -3.912498701888381E-1
 1.240000001000000E9     2.242459152288693E-1   -4.971673868563496E-1
 1.250000001000000E9     1.831168122561752E-2   -5.171121585074109E-1
 1.260000001000000E9    -1.661183771755681E-1   -4.605111478434923E-1
 1.270000001000000E9    -3.061150138256201E-1   -3.476988775560760E-1
 1.280000001000000E9    -3.909552480551285E-1   -2.020401990732282E-1
 1.290000001000000E9    -4.177281307554175E-1   -4.441191628130968E-2
 1.300000001000000E9    -3.895922564449619E-1    1.065625717541660E-1
 1.310000001000000E9    -3.116788010521980E-1    2.342865025082567E-1
 1.320000001000000E9    -1.949195354923555E-1    3.220597411594471E-1
 1.330000001000000E9    -5.697624480215834E-2    3.582467495966629E-1
 1.340000001000000E9     8.010176258755813E-2    3.373862624904252E-1
 1.350000001000000E9     1.920519782384958E-1    2.666741235175703E-1
 1.360000001000000E9     2.599355076911181E-1    1.629029869247323E-1
 1.370000001000000E9     2.769622447813683E-1    5.023446944649267E-2
 1.380000001000000E9     2.486294163966543E-1   -4.717332226694062E-2
 1.390000001000000E9     1.923825748646032E-1   -1.125709004391628E-1
 1.400000001000000E9     1.304473067819554E-1   -1.434358280401619E-1
 1.410000001000000E9     7.916827041913962E-2   -1.502597670646259E-1
 1.420000001000000E9     4.303882671590235E-2   -1.491026029196745E-1
 1.430000001000000E9     1.280701594868279E-2   -1.526407778201821E-1
 1.440000001000000E9    -2.527273988257668E-2   -1.583713284032319E-1
 1.450000001000000E9    -7.600378731600890E-2   -1.528599471648225E-1
 1.460000001000000E9    -1.303839521622341E-1   -1.217624523560191E-1
 1.470000001000000E9    -1.688409401746510E-1   -6.359279679699720E-2
 1.480000001000000E9    -1.749560830067062E-1    7.332568741431889E-3
 1.490000001000000E9    -1.474395605379410E-1    6.875776313161330E-2
 1.500000001000000E9    -1.007129872154247E-1    1.050423578397090E-1
 1.510000001000000E9    -5.394290840582933E-2    1.138492108560362E-1
 1.520000001000000E9    -2.104978102144693E-2    1.063375481294819E-1
 1.530000001000000E9    -2.905258651214661E-3    9.685574827995233E-2
 1.540000001000000E9     8.394622340577874E-3    9.486298912872533E-2
 1.550000001000000E9     2.435885364436331E-2    9.925335367661468E-2
 1.560000001000000E9     5.057689083584763E-2    1.017601003888239E-1
 1.570000001000000E9     8.409935333077503E-2    9.278198657277416E-2
 1.580000001000000E9     1.158071083504373E-1    6.784611849108559E-2
 1.590000001000000E9     1.359930745104745E-1    3.012620372181215E-2
 1.600000001000000E9     1.401535508062812E-1   -1.252515380962071E-2
 1.610000001000000E9     1.296215702920010E-1   -5.119894253875005E-2
 1.620000001000000E9     1.114145485751520E-1   -8.171924162522082E-2
 1.630000001000000E9     9.093013694174838E-2   -1.063409509566976E-1
 1.640000001000000E9     6.928336353816197E-2   -1.302172920994173E-1
 1.650000001000000E9     4.050130070028127E-2   -1.571074030564268E-1
 1.660000001000000E9    -3.421555809335377E-3   -1.832467124407813E-1
 1.670000001000000E9    -6.703704300591261E-2   -1.972034945579070E-1
 1.680000001000000E9    -1.454842712123456E-1   -1.849344390547813E-1
 1.690000001000000E9    -2.240928359182089E-1   -1.359080184612019E-1
 1.700000001000000E9    -2.830269797998715E-1   -4.965449914055325E-2
 1.710000001000000E9    -3.037990108159245E-1    6.276535986835782E-2
 1.720000001000000E9    -2.760160314812378E-1    1.812882524503591E-1
 1.730000001000000E9    -2.002525928779869E-1    2.837149997168103E-1
 1.740000001000000E9    -8.719025605283841E-2    3.506060011343293E-1
 1.750000001000000E9     4.507196307297059E-2    3.701806059341529E-1
 1.760000001000000E9     1.766502646532696E-1    3.389879248202463E-1
 1.770000001000000E9     2.889693019427673E-1    2.623511898887093E-1
 1.780000001000000E9     3.679410244635346E-1    1.507037562613814E-1
 1.790000001000000E9     4.046668460410045E-1    1.800982863475446E-2
 1.800000001000000E9     3.948656878689142E-1   -1.213233496419178E-1
 1.810000001000000E9     3.385564008263141E-1   -2.525477048569570E-1
 1.820000001000000E9     2.390147735241491E-1   -3.607889713321773E-1
 1.830000001000000E9     1.041086524357529E-1   -4.316949592091598E-1
 1.840000001000000E9    -5.261271653586291E-2   -4.528561663858323E-1
 1.850000001000000E9    -2.124404916584790E-1   -4.165388886032983E-1
 1.860000001000000E9    -3.530035150145229E-1   -3.225131355098227E-1
 1.870000001000000E9    -4.526188088447866E-1   -1.808728373296173E-1
 1.880000001000000E9    -4.949714597282412E-1   -1.053691262823059E-2
 1.890000001000000E9    -4.728223360260461E-1    1.647149369847787E-1
 1.900000001000000E9    -3.899464678284219E-1    3.204388456049958E-1
 1.910000001000000E9    -2.591805287307063E-1    4.360183347503466E-1
 1.920000001000000E9    -9.938963803542136E-2    4.997784692443727E-1
 1.930000001000000E9     7.015466334582744E-2    5.074130815063891E-1
 1.940000001000000E9     2.320315083903006E-1    4.610446413014153E-1
 1.950000001000000E9     3.717251048637655E-1    3.664888265368520E-1
 1.960000001000000E9     4.766822995483615E-1    2.315257384978888E-1
 1.970000001000000E9     5.353310103234862E-1    6.679787694675239E-2
 1.980000001000000E9     5.381787173086652E-1   -1.131544563605361E-1
 1.990000001000000E9     4.802634253116354E-1   -2.896743683613690E-1
 2.000000001000000E9     3.629818846353970E-1   -4.413719740478030E-1
 2.010000001000000E9     1.967163453438767E-1   -5.471453782770378E-1
 2.020000001000000E9    -5.004354497119344E-4   -5.903944368572720E-1
 2.030000001000000E9    -2.048207144012743E-1   -5.620359510251828E-1
 2.040000001000000E9    -3.894021253593305E-1   -4.628120673746479E-1
 2.050000001000000E9    -5.296970892348216E-1   -3.037171001949197E-1
 2.060000001000000E9    -6.065591014308773E-1   -1.040466615626301E-1
 2.070000001000000E9    -6.097337257557318E-1    1.110949052282680E-1
 2.080000001000000E9    -5.388630501848116E-1    3.149369696254717E-1
 2.090000001000000E9    -4.024051670572188E-1    4.831357348213541E-1
 2.100000001000000E9    -2.163202855894608E-1    5.964970357448504E-1
 2.110000001000000E9    -7.654092652734605E-4    6.418937790367575E-1
 2.120000001000000E9     2.246735787782566E-1    6.116212911141928E-1
 2.130000001000000E9     4.197628851488117E-1    5.034738888170347E-1
 2.140000001000000E9     5.795919640342048E-1    3.245837688941490E-1
 2.150000001000000E9     6.498836006669900E-1    9.658439502203707E-2
 2.160000001000000E9     6.358931812787034E-1   -1.199633129415132E-1
 2.170000001000000E9     5.680271098062921E-1   -3.228343239554444E-1
 2.180000001000000E9     4.321636460419101E-1   -5.034224976168865E-1
 2.190000001000000E9     2.340478180505310E-1   -6.286099720877066E-1
 2.200000001000000E9    -3.689255868181064E-4   -6.747909243277598E-1
 2.210000001000000E9    -2.381729992596449E-1   -6.319105402092381E-1
 2.220000001000000E9    -4.436068537419729E-1   -5.034295060218661E-1
 2.230000001000000E9    -5.822559407430957E-1   -3.101493434628962E-1
 2.240000001000000E9    -6.386795342082700E-1   -9.161794202144982E-2
 2.250000001000000E9    -6.234688226173078E-1    1.226286191453058E-1
 2.260000001000000E9    -5.448369359801037E-1    3.197439685362170E-1
 2.270000001000000E9    -4.064239248690790E-1    4.830554782724534E-1
 2.280000001000000E9    -2.198539970983859E-1    5.928890834345077E-1
 2.290000001000000E9    -4.777770756767716E-3    6.339681219996536E-1
 2.300000001000000E9     2.136798125121508E-1    5.986638033182531E-1
 2.310000001000000E9     4.080290716994484E-1    4.890275052484733E-1
 2.320000001000000E9     5.526846087018483E-1    3.176948913241184E-1
 2.330000001000000E9     6.284923256299686E-1    1.064101855667779E-1
 2.340000001000000E9     6.256635085955082E-1   -1.179630017690089E-1
 2.350000001000000E9     5.454200299635696E-1   -3.267273819345541E-1
 2.360000001000000E9     3.976352955023909E-1   -4.943708419589691E-1
 2.370000001000000E9     2.007304203962325E-1   -5.998018273715310E-1
 2.380000001000000E9    -2.025374370929743E-2   -6.287293452369864E-1
 2.390000001000000E9    -2.352915211015147E-1   -5.775844499212947E-1
 2.400000001000000E9    -4.155621573323342E-1   -4.552632665688665E-1
 2.410000001000000E9    -5.393383002463671E-1   -2.813062394715124E-1
 2.420000001000000E9    -5.950356285820996E-1   -7.929713576542198E-2
