!Mini-Circuits Laboratory
!S-Parameters
!Model: ZX60-V63+
!Run / Lot / Date Code: E114204 /  / NA
!Fixture: 
!Network Analyzer: PNA-X N5242A - 423 4 ports;  Serial number: 71932
!Date: 10/26/2011 at 11:41:28 AM
!S/N: Unit# 1 (Unit5)
!Tested with: 
!
# Hz  S  dB  R  50
!Frequency    S11 dB        S11 Deg       S21 dB        S21 Deg       S12 dB        S12 Deg       S22 dB        S22 Deg       
10000000      -7.2261739    -46.4242706   24.1861095    -159.6701965  -27.0542393   41.8424301    -8.6941652    37.1738281    
15000000      -8.5999279    -59.3470192   23.5320797    -171.0030975  -26.7663803   43.6580009    -9.6380568    5.4050918     
20000000      -10.1941700   -71.0339890   23.0801697    -177.7243958  -26.1130905   34.2841988    -11.1271496   -11.7229004   
25000000      -11.4009600   -80.5300598   22.7132492    179.0599976   -25.5728092   27.3284206    -12.3466501   -22.3264103   
30000000      -12.4434996   -86.1506119   22.4599495    177.8164978   -25.2505703   24.5919304    -13.1111002   -27.7937107   
35000000      -13.4327297   -91.5988235   22.2566795    176.8984070   -25.0240498   21.3244495    -13.9313097   -31.7665806   
40000000      -14.2643499   -97.2319794   22.1002007    176.1651001   -24.8826008   18.1217403    -14.7644100   -35.0057106   
45000000      -14.9718599   -102.2798996  21.9962502    175.6246033   -24.7905006   16.5712395    -15.4474802   -37.2900581   
50000000      -15.8640804   -108.2033997  21.9038906    175.4197998   -23.7427807   12.3438196    -15.7923002   -42.5462608   
55000000      -16.2768002   -110.1766968  21.8204994    175.1266937   -24.7745609   12.7939301    -16.5517502   -39.0549011   
60000000      -16.5522709   -115.6533966  21.7253494    174.7859955   -24.4629498   13.8408699    -16.8264008   -42.5108604   
65000000      -17.2204094   -117.5663986  21.7211208    174.5729980   -24.5752907   10.9086199    -17.3495102   -40.4521484   
70000000      -17.6167393   -120.6980972  21.6793804    174.3500977   -24.5418205   9.5611162     -17.7533493   -41.0968285   
75000000      -17.9978504   -123.8332977  21.6531906    174.1013947   -24.5940399   8.9633064     -17.9997501   -41.2419205   
80000000      -18.2969093   -126.2077026  21.6286793    173.8462982   -24.5301304   8.1716900     -18.1888199   -41.4996605   
85000000      -18.6014500   -129.1324005  21.6051292    173.5993958   -24.5103798   7.3823538     -18.4913502   -41.6431084   
90000000      -18.8995495   -132.1450043  21.5822105    173.3750000   -24.5665493   6.2206039     -18.7128792   -41.4460602   
95000000      -19.1216297   -134.1056976  21.5713596    173.1022949   -24.4694195   6.0257120     -18.8981209   -41.9221191   
100000000     -19.3560009   -136.2395020  21.5553799    172.8381042   -24.4656200   5.8018179     -19.0372391   -42.3202400   
105000000     -19.5280209   -138.4963989  21.5452805    172.5778961   -24.4849892   5.2616329     -19.2082100   -42.3197708   
110000000     -19.7089005   -140.5937042  21.5373592    172.2893982   -24.5085201   4.2026138     -19.2524605   -42.7809486   
115000000     -19.8846302   -142.2440948  21.5269299    172.0388947   -24.4993305   3.9722750     -19.3934307   -43.1283989   
120000000     -20.0167599   -144.3986969  21.5187092    171.8094940   -24.4512901   3.5647011     -19.4836006   -43.4125099   
125000000     -20.1441193   -146.1051941  21.5106792    171.5408936   -24.4918404   3.4737461     -19.6150093   -43.5824394   
130000000     -20.2255802   -147.8809967  21.5055008    171.2669983   -24.4623909   2.9314411     -19.6545906   -43.7829208   
135000000     -20.3757706   -149.5491028  21.4978104    171.0084991   -24.4450607   2.7056551     -19.6907997   -44.1469688   
140000000     -20.4812393   -151.0738068  21.4905491    170.7760010   -24.4433899   2.3915830     -19.7826900   -44.1481705   
145000000     -20.5746593   -152.5917969  21.4876709    170.5128021   -24.4663792   2.0882010     -19.7700806   -44.7262115   
150000000     -20.6400394   -154.1766968  21.4913597    170.2527008   -24.3930798   1.8404170     -19.8526802   -44.8930397   
155000000     -20.7278309   -154.8627014  21.4808807    169.9635925   -24.4697094   1.2568880     -19.8554096   -45.3867493   
160000000     -20.7832909   -156.7980957  21.4751797    169.7046967   -24.4233799   1.1894940     -19.9385891   -45.8838501   
165000000     -20.9538403   -157.9819946  21.4748192    169.4431000   -24.4634094   0.9823098     -19.9020500   -46.0088615   
170000000     -20.9587097   -159.2552948  21.4698391    169.1770020   -24.4406395   0.7258104     -19.9494305   -46.6288300   
175000000     -21.0554790   -160.2946930  21.4658909    168.9044037   -24.4163399   0.3498930     -19.9577198   -47.1755104   
180000000     -21.1058102   -161.7929993  21.4604797    168.6334991   -24.4505806   0.0635311     -19.9620609   -47.5533409   
185000000     -21.1193504   -163.0953064  21.4558601    168.3905029   -24.4119396   -0.0739288    -20.0267296   -48.1233711   
190000000     -21.2069702   -164.0765991  21.4536896    168.0867004   -24.4290905   -0.3641261    -19.9931202   -48.7078514   
195000000     -21.2631493   -165.2306976  21.4482498    167.8448029   -24.4165707   -0.3620729    -19.9731903   -49.2122612   
200000000     -21.3746796   -166.3750000  21.4482098    167.5413971   -24.4001808   -0.4560132    -19.9553509   -49.5140610   
205000000     -21.3629894   -167.1154938  21.4448509    167.2904053   -24.4860001   -0.8228399    -19.9485893   -50.0658989   
210000000     -21.4027004   -168.6855927  21.4306107    167.0097046   -24.4480705   -1.0553690    -20.0571003   -50.7277489   
215000000     -21.4899597   -169.2704926  21.4301891    166.7588043   -24.3989391   -1.7526850    -19.9599304   -51.1185303   
220000000     -21.5407791   -170.1033020  21.4288101    166.4438019   -24.4588509   -1.5496820    -19.9578896   -51.6692009   
225000000     -21.5669498   -171.7911987  21.4240608    166.2041016   -24.4218903   -1.6227241    -20.0122395   -51.9014206   
230000000     -21.6284809   -172.6109924  21.4228497    165.9217987   -24.4026909   -2.0834539    -19.9309902   -52.5104599   
235000000     -21.5984402   -172.8919983  21.4174805    165.6201019   -24.4448700   -2.1886499    -19.9454708   -53.4839516   
240000000     -21.6413593   -173.8764038  21.4122200    165.3713074   -24.3934193   -2.3137300    -19.9226093   -53.7349815   
245000000     -21.6529503   -174.8558044  21.4108791    165.0803986   -24.4296303   -2.4946499    -19.9488201   -54.2401199   
250000000     -21.7368698   -175.2521973  21.4146500    164.7960968   -24.3991795   -2.3230340    -19.8907700   -54.7749786   
255000000     -21.8308392   -176.8768005  21.4174500    164.5036011   -24.4082699   -2.8773711    -19.8343601   -55.2523384   
260000000     -21.7022209   -177.3150024  21.4118996    164.2290039   -24.4018707   -2.8727660    -19.8028603   -56.2453117   
265000000     -21.8052692   -177.4145966  21.4166298    163.9638062   -24.4329491   -2.8927190    -19.7188301   -56.6051102   
270000000     -21.8164005   -178.8020020  21.4034309    163.6753998   -24.4125309   -3.7104690    -19.7789803   -57.1525116   
275000000     -21.8930702   -179.3504028  21.4074707    163.4004059   -24.4307098   -3.3647039    -19.7154694   -57.6297302   
280000000     -21.8680706   179.9779968   21.4062004    163.1717987   -24.4621601   -3.8324611    -19.7628593   -58.2552109   
285000000     -21.8410702   178.8128967   21.4042206    162.8742065   -24.4769402   -3.9370761    -19.6700096   -59.0825615   
290000000     -21.9888191   178.5829010   21.3988705    162.5592041   -24.4212608   -3.8306291    -19.5685596   -59.5790482   
295000000     -22.0512104   176.9980927   21.4028091    162.3224030   -24.4758301   -4.0672302    -19.6228409   -59.8615990   
300000000     -21.9973907   177.2848053   21.3920498    161.9960022   -24.3933506   -4.1318440    -19.4858494   -60.7259483   
305000000     -22.0851307   176.1690063   21.3969707    161.7501068   -24.4545498   -4.4270730    -19.4899292   -60.7187881   
310000000     -22.1544094   175.4766998   21.3981094    161.4864960   -24.4706802   -4.6189280    -19.5136909   -61.3481293   
315000000     -22.1144199   174.6356964   21.3913498    161.1849976   -24.4302292   -4.4980030    -19.4640408   -61.7411194   
320000000     -22.1598396   173.6015015   21.3909206    160.8852997   -24.4595795   -4.9003921    -19.4277496   -62.4638290   
325000000     -22.1778793   173.0644073   21.3857307    160.6143036   -24.4682999   -5.0092669    -19.4082909   -63.0652695   
330000000     -22.2470398   172.7642059   21.3911991    160.3460999   -24.4780998   -4.9800701    -19.3746300   -63.4621201   
335000000     -22.2324905   171.5267029   21.3839092    160.0738983   -24.3780193   -5.4412198    -19.3254795   -63.8536491   
340000000     -22.2213497   171.3722992   21.3834801    159.8173065   -24.4163609   -5.3070641    -19.3140793   -64.7857819   
345000000     -22.2633305   171.1116943   21.3778591    159.5310974   -24.4418201   -5.6486211    -19.3061008   -65.3377914   
350000000     -22.1974907   170.0841980   21.3798409    159.2218933   -24.4650993   -5.6858740    -19.2523098   -65.9008865   
355000000     -22.2850208   169.0749969   21.3739491    158.9667053   -24.5000801   -5.6738410    -19.2788792   -66.3883286   
360000000     -22.4079609   168.6280060   21.3739891    158.6652069   -24.4510708   -6.1066060    -19.2606392   -66.6958694   
365000000     -22.3640995   167.8303986   21.3747292    158.4107056   -24.4161301   -5.9835291    -19.1432705   -67.3823471   
370000000     -22.4146194   167.4510956   21.3703899    158.1260986   -24.4449291   -6.1108112    -19.1264400   -68.2074432   
375000000     -22.4304905   166.2362976   21.3692608    157.8318024   -24.4928303   -6.5169172    -19.1160297   -68.6532898   
380000000     -22.3439808   165.6985931   21.3645496    157.5559998   -24.3996506   -6.3095360    -19.0149403   -69.0820389   
385000000     -22.3724403   164.9853973   21.3591099    157.2568054   -24.3990593   -6.7901030    -19.0662708   -69.8882828   
390000000     -22.4678707   164.4273987   21.3624401    156.9866943   -24.4227200   -7.0660810    -19.0078793   -70.5771332   
395000000     -22.4693508   164.3132019   21.3591900    156.7149048   -24.4939594   -6.9453368    -18.9477901   -70.8132172   
400000000     -22.5342693   163.8244934   21.3550396    156.4069977   -24.3983002   -7.1153340    -18.9789391   -71.4642792   
405000000     -22.5241604   163.6990051   21.3485107    156.1441956   -24.4759293   -7.2299700    -18.9460793   -71.9104767   
410000000     -22.5983009   162.7286987   21.3498192    155.8276978   -24.4427509   -7.4569411    -18.8432999   -72.4641037   
415000000     -22.6219597   162.3269043   21.3494892    155.5590057   -24.4107895   -7.4831691    -18.8666706   -72.6067810   
420000000     -22.6602993   162.1912994   21.3455200    155.2787933   -24.4282799   -7.8676481    -18.8258896   -73.3043671   
425000000     -22.7346401   160.7583008   21.3452396    155.0014038   -24.4656200   -7.8486919    -18.7904701   -73.7422638   
430000000     -22.6406994   160.9757996   21.3414993    154.6981964   -24.4067802   -8.0458822    -18.7181797   -74.5347977   
435000000     -22.7824402   160.2700043   21.3407402    154.4315948   -24.4221001   -8.2076902    -18.6621494   -75.0573502   
440000000     -22.7356606   159.3970032   21.3391495    154.1651001   -24.4333706   -8.2160482    -18.6996307   -75.5702820   
445000000     -22.7324200   158.7756958   21.3363304    153.8721008   -24.3983707   -8.3286219    -18.6611004   -76.0853806   
450000000     -22.7871494   158.6685944   21.3368702    153.5722046   -24.3592892   -7.9427009    -18.6098900   -76.6903992   
455000000     -22.7759495   157.2104950   21.3285599    153.3050995   -24.4238892   -8.7121649    -18.5838203   -77.3634872   
460000000     -22.8420906   156.7104950   21.3328304    153.0316010   -24.4273109   -8.5873404    -18.5362301   -77.7509537   
465000000     -22.8180599   155.9913940   21.3308392    152.7245026   -24.4159908   -9.0330153    -18.5517998   -78.5771408   
470000000     -22.8976402   155.2890930   21.3276501    152.4487000   -24.4197407   -8.9942808    -18.4384499   -78.6970062   
475000000     -22.8901291   155.1304016   21.3255501    152.1687927   -24.4024506   -9.1478872    -18.4417801   -79.5021210   
480000000     -22.9055500   154.4212036   21.3222599    151.8737030   -24.3923798   -9.1272221    -18.4186993   -79.9348907   
485000000     -22.9669991   153.6325989   21.3177299    151.5968018   -24.3783493   -9.2912941    -18.3565102   -80.2674484   
490000000     -22.9696102   152.8876038   21.3166599    151.3000031   -24.4388905   -9.1536837    -18.3399906   -81.0645828   
495000000     -23.0093708   152.3834076   21.3163700    151.0238037   -24.4396095   -9.8604031    -18.3356400   -81.4459076   
500000000     -22.9878693   152.5417938   21.3141994    150.7642975   -24.4389591   -9.8517265    -18.2944508   -81.9944229   
505000000     -23.1120491   151.7333984   21.3110809    150.4411011   -24.4468594   -9.7657366    -18.2480392   -82.4611664   
510000000     -23.0676193   151.0088043   21.3125000    150.1611023   -24.4037399   -10.2645903   -18.2219505   -82.8270493   
515000000     -23.2067795   150.8531036   21.3101006    149.8968048   -24.4123192   -9.5684271    -18.1707706   -83.2888794   
520000000     -23.1707897   150.1752014   21.3031693    149.6228943   -24.3925991   -10.5129995   -18.1705799   -83.9530487   
525000000     -23.1589909   149.7886963   21.3023701    149.3392029   -24.4178791   -10.3877096   -18.1618309   -84.8940506   
530000000     -23.1817207   148.8186035   21.2994709    149.0756073   -24.4239693   -10.5335302   -18.1651802   -85.0934601   
535000000     -23.1779308   148.5601044   21.2959404    148.7792969   -24.4701004   -10.6905899   -18.1522198   -85.4050827   
540000000     -23.2818794   148.4786072   21.2958298    148.4815979   -24.3917408   -10.9183798   -18.0867500   -86.3904037   
545000000     -23.2776203   147.8710938   21.2918396    148.2295074   -24.4347496   -11.0493498   -18.0465508   -86.8137589   
550000000     -23.3307991   147.6230011   21.2906303    147.9552002   -24.4058800   -11.0991602   -18.0383492   -87.3702393   
555000000     -23.3959503   146.7492981   21.2861595    147.6721954   -24.4434109   -10.9655104   -17.9545898   -87.7004166   
560000000     -23.3828201   146.6401978   21.2838993    147.3526001   -24.3913803   -11.1911402   -17.9093094   -88.1504898   
565000000     -23.4337292   146.0879974   21.2845402    147.0823059   -24.4078293   -11.5146399   -17.8917809   -88.8133774   
570000000     -23.4831791   145.1045074   21.2845592    146.8262024   -24.3836193   -11.6052999   -17.8621807   -88.5529327   
575000000     -23.5042191   144.7711945   21.2806206    146.5180054   -24.4289894   -12.0474997   -17.8129292   -89.7045975   
580000000     -23.4841900   144.1750946   21.2797909    146.2451935   -24.3599300   -11.6309795   -17.7892609   -89.8920135   
585000000     -23.4177094   143.4891052   21.2754898    145.9777985   -24.4180393   -12.0932398   -17.7899208   -90.5976563   
590000000     -23.5466499   143.2550964   21.2768593    145.6878052   -24.4202499   -12.1229601   -17.7022495   -90.8114090   
595000000     -23.5223103   142.7825012   21.2716103    145.3849030   -24.4325104   -12.1254597   -17.6842308   -91.6483002   
600000000     -23.5359592   142.3769073   21.2722397    145.0975952   -24.4048691   -12.3783798   -17.6760998   -91.8183212   
605000000     -23.5404205   141.4678040   21.2696304    144.8237000   -24.3938293   -12.6024599   -17.6017799   -92.3902206   
610000000     -23.6023407   141.3152008   21.2737293    144.5294037   -24.4210205   -12.7888899   -17.5576897   -92.7462234   
615000000     -23.6161594   140.5997925   21.2653809    144.2550964   -24.4111099   -12.7934799   -17.5676994   -93.2291336   
620000000     -23.5735092   140.3762970   21.2602692    143.9687958   -24.3767109   -12.8497801   -17.4920197   -93.7953033   
625000000     -23.6302700   139.5715942   21.2585201    143.6831970   -24.4673195   -13.1596899   -17.4867802   -94.3467102   
630000000     -23.7389297   138.7666931   21.2680397    143.3343964   -24.4611206   -12.9665298   -17.4716702   -94.5164413   
635000000     -23.6759205   138.5993958   21.2650909    143.0473938   -24.4444199   -13.2970600   -17.3707409   -95.1526031   
640000000     -23.6437492   138.2014008   21.2571907    142.7895050   -24.4801903   -13.2133703   -17.3793793   -95.7646103   
645000000     -23.7315502   138.1855927   21.2592392    142.4835968   -24.4151192   -13.2228603   -17.3322506   -95.9840927   
650000000     -23.6584301   137.0186005   21.2518692    142.2015076   -24.3624191   -13.4374199   -17.3085003   -96.5508423   
655000000     -23.7195892   136.0292969   21.2497902    141.9270020   -24.3904991   -13.3942900   -17.2893295   -97.0882797   
660000000     -23.7493095   135.2319946   21.2475700    141.6302948   -24.4300900   -13.9303198   -17.2505798   -97.4096069   
665000000     -23.7115307   134.8063049   21.2401505    141.3354950   -24.4417706   -13.8082399   -17.2915096   -97.8362732   
670000000     -23.7714100   133.8515015   21.2363605    141.0536957   -24.4200802   -14.3543196   -17.1938992   -98.2754135   
675000000     -23.8449306   133.3592987   21.2346306    140.7823029   -24.4222603   -14.0819502   -17.1700592   -98.3988571   
680000000     -24.0065002   133.1604004   21.2359600    140.4720001   -24.4731407   -13.8114700   -17.1305199   -98.9404984   
685000000     -23.9234695   131.8610992   21.2330494    140.1920013   -24.4525700   -14.4672403   -17.0982304   -99.3097992   
690000000     -23.9484692   131.7718048   21.2250195    139.9326935   -24.3716393   -14.4967299   -17.0808907   -99.5691605   
695000000     -23.9792004   131.2507935   21.2202206    139.6114960   -24.4319305   -15.0892401   -17.0400906   -100.1759033  
700000000     -24.0470791   130.7288055   21.2207508    139.3516998   -24.4035301   -15.0447998   -17.0106297   -100.5072021  
705000000     -24.0492001   129.5377960   21.2175007    139.0733948   -24.4122601   -14.6950302   -16.9925499   -100.8075027  
710000000     -24.0199795   129.4739075   21.2086506    138.7667999   -24.4215508   -14.8347797   -16.9660091   -101.4117966  
715000000     -24.1256104   128.9199982   21.2058792    138.4998016   -24.4349308   -15.1026297   -16.9481297   -101.6320038  
720000000     -24.2711697   128.3038940   21.2026997    138.2070007   -24.4125500   -15.0880003   -16.9158897   -102.0757980  
725000000     -24.1933308   127.1238022   21.1989994    137.9409027   -24.4213295   -15.8921404   -16.8399200   -102.4759979  
730000000     -24.2240200   127.5482025   21.1918697    137.6127930   -24.4011402   -15.5163002   -16.8262501   -102.9187012  
735000000     -24.3011303   125.7545013   21.1883507    137.3352051   -24.3757896   -15.4037104   -16.7935505   -103.2350998  
740000000     -24.2787991   125.1611023   21.1782093    137.0704041   -24.3831596   -15.8678999   -16.7697792   -103.2525024  
745000000     -24.2636795   124.2718964   21.1753292    136.8303070   -24.3977509   -15.7541304   -16.7848396   -103.8862991  
750000000     -24.4137192   123.3953018   21.1712208    136.5413055   -24.4516697   -15.9923401   -16.7141705   -104.3431015  
755000000     -24.4544201   123.3762970   21.1679192    136.2550049   -24.4607906   -15.7837296   -16.7139893   -104.5106964  
760000000     -24.4798393   122.4365005   21.1618900    135.9956970   -24.4355392   -15.9808798   -16.6533909   -105.1106033  
765000000     -24.5762997   121.1613007   21.1556892    135.7371979   -24.4283199   -16.7692509   -16.6685791   -105.3050003  
770000000     -24.5696106   120.8224030   21.1542702    135.4680023   -24.4299603   -16.2912903   -16.6113701   -105.4580002  
775000000     -24.7238197   119.3015976   21.1492290    135.1949005   -24.4156895   -16.4272194   -16.5721302   -105.6640015  
