!Mini-Circuits Laboratory
!S-Parameters
!Model: ZX60-V63+
!Run / Lot / Date Code: E114204 /  / NA
!Fixture: 
!Network Analyzer: PNA-X N5242A - 423 4 ports;  Serial number: 71932
!Date: 10/26/2011 at 11:41:47 AM
!S/N: Unit# 1 (Unit5)
!Tested with: 
!
# Hz  S  dB  R  50
!Frequency    S11 dB        S11 Deg       S21 dB        S21 Deg       S12 dB        S12 Deg       S22 dB        S22 Deg       
10000000      -6.6613569    -55.0891495   24.3850708    -158.7270050  -31.6309891   70.5501404    -9.8391962    37.0009804    
15000000      -8.5234928    -61.9084206   23.7438908    -170.7429962  -27.2459908   44.1367493    -9.9265938    6.4528360     
20000000      -10.1746502   -73.5511703   23.2734604    -177.6092987  -26.2124195   33.9306107    -11.3963804   -11.4703102   
25000000      -11.3648005   -82.9900131   22.8963604    179.1183929   -25.6569309   27.7820606    -12.6330204   -22.3978691   
30000000      -12.3751898   -88.8326721   22.6379700    177.8735046   -25.3310394   23.9541893    -13.4239998   -28.6640301   
35000000      -13.3290100   -94.5614319   22.4318905    176.9577026   -25.1577702   21.0513306    -14.2327003   -32.9046097   
40000000      -14.1181097   -100.0333023  22.2740192    176.2295074   -25.0217304   18.4281998    -15.0935202   -36.2938499   
45000000      -14.7957497   -105.3895035  22.1685104    175.6976013   -24.9400806   16.3975601    -15.7514896   -38.6349907   
50000000      -15.6766100   -111.4307022  22.0757999    175.4785004   -25.7725296   9.7397842     -16.2643909   -41.8841782   
55000000      -15.9998903   -113.4074020  21.9911995    175.2472992   -24.8677597   12.9794998    -16.8906593   -40.8694916   
60000000      -16.3113403   -116.3394012  21.8988094    174.9167023   -24.8799305   14.6514196    -17.1042194   -44.4567795   
65000000      -16.8473701   -120.2836990  21.8919506    174.7028046   -24.6947594   10.6132002    -17.6790905   -42.6357994   
70000000      -17.2204304   -123.6328964  21.8515091    174.4833069   -24.6991501   10.0958595    -18.0517807   -43.5083809   
75000000      -17.5411606   -126.6423035  21.8235607    174.2465057   -24.6814804   8.9410343     -18.3371792   -43.3833008   
80000000      -17.7997704   -129.0066986  21.8011303    173.9904022   -24.6663208   8.0217581     -18.5297699   -43.8721085   
85000000      -18.1066704   -131.7071075  21.7778893    173.7512970   -24.6688499   7.7314601     -18.8077297   -44.3814507   
90000000      -18.3604908   -134.5977936  21.7556705    173.5289001   -24.6503601   7.2553339     -19.0719509   -44.1998291   
95000000      -18.5616093   -136.5814056  21.7442303    173.2615967   -24.6473103   6.2203231     -19.1972103   -44.6090012   
100000000     -18.7654800   -138.4871979  21.7295704    173.0005951   -24.6493893   5.8716269     -19.3414707   -45.0261993   
105000000     -18.9257908   -140.3834076  21.7186909    172.7424927   -24.6208191   5.1373811     -19.5142899   -44.9962502   
110000000     -19.0964794   -142.1304016  21.7104607    172.4609070   -24.5981197   4.7755532     -19.5595303   -45.2148209   
115000000     -19.2649307   -143.9561005  21.7010899    172.2095947   -24.6435299   4.1146688     -19.6684799   -45.7397919   
120000000     -19.3499298   -145.3423004  21.6936398    171.9893951   -24.5677299   4.0248251     -19.7619495   -45.8261108   
125000000     -19.4626694   -147.4418030  21.6864300    171.7174988   -24.5986500   3.3512969     -19.8154297   -46.0172081   
130000000     -19.5772591   -148.6876068  21.6812897    171.4467010   -24.5338192   3.0112820     -19.8253593   -46.2953186   
135000000     -19.6871109   -150.2295990  21.6739407    171.1992035   -24.5792408   2.5433609     -19.9193192   -46.6345291   
140000000     -19.8161297   -151.6641998  21.6665306    170.9727936   -24.6107197   2.3476579     -19.9756603   -46.6731110   
145000000     -19.9130707   -152.8795013  21.6645107    170.7030945   -24.6014194   2.1160841     -19.9707603   -47.0555687   
150000000     -20.0184498   -153.8733978  21.6677608    170.4463959   -24.5932503   2.5246639     -20.1016903   -47.2656784   
155000000     -20.0414600   -155.0314026  21.6578102    170.1660004   -24.5519505   1.2635200     -20.0562992   -47.8977013   
160000000     -20.1397800   -156.7239075  21.6528301    169.9069977   -24.5714493   0.9960797     -20.0630798   -48.1065102   
165000000     -20.2601109   -157.8365936  21.6529102    169.6542969   -24.6390896   0.8483778     -20.0535793   -48.4056396   
170000000     -20.3299007   -158.7693939  21.6487808    169.3865051   -24.6322708   1.0296050     -20.0945797   -48.8810501   
175000000     -20.3586597   -160.0052032  21.6450195    169.1130981   -24.5713196   0.5349017     -20.0769596   -49.7096100   
180000000     -20.4727802   -160.8966980  21.6390209    168.8580017   -24.6100407   0.0763151     -20.1066608   -49.7254791   
185000000     -20.4965000   -162.4956970  21.6367207    168.6154022   -24.5730991   0.1454206     -20.1115208   -50.2935600   
190000000     -20.5783195   -163.2138977  21.6346302    168.3043060   -24.5781708   -0.3049989    -20.0795898   -50.9799614   
195000000     -20.6163406   -164.2579956  21.6283302    168.0681000   -24.6152306   -0.6544257    -20.0752201   -51.4424400   
200000000     -20.7029705   -165.3619995  21.6284904    167.7749939   -24.5577793   -0.7374113    -20.0709209   -51.7342911   
205000000     -20.7474403   -166.2214966  21.6258602    167.5256958   -24.5703106   -1.0232360    -20.0290108   -52.3701782   
210000000     -20.7673302   -167.2864990  21.6126099    167.2449036   -24.6168900   -1.2781600    -20.1800900   -53.0827904   
215000000     -20.8594093   -167.9089966  21.6132908    166.9904938   -24.5602207   -1.4323040    -20.0548801   -53.1589203   
220000000     -20.9095402   -168.5303040  21.6128101    166.6855011   -24.5671101   -1.8024900    -20.0312004   -54.0116386   
225000000     -20.9254608   -170.3166046  21.6098709    166.4387970   -24.5767899   -2.0089180    -20.0817108   -54.2720795   
230000000     -20.9701405   -170.8607025  21.6075497    166.1517944   -24.5803394   -1.8881249    -20.0053692   -54.9146004   
235000000     -20.9489307   -171.2597961  21.6030006    165.8703003   -24.5820999   -2.2934480    -20.0263405   -55.7459717   
240000000     -20.9707603   -172.4985046  21.5969505    165.6114044   -24.5849800   -2.5526350    -19.9875202   -56.1520691   
245000000     -20.9905491   -173.1038055  21.5950699    165.3215942   -24.5854206   -2.6655419    -19.9962997   -56.7270393   
250000000     -20.9896507   -174.2391968  21.5998898    165.0458984   -24.6177597   -3.0472670    -19.9795494   -57.4232292   
255000000     -21.1452694   -174.7978973  21.6015892    164.7628937   -24.5711994   -2.7713301    -19.9290199   -57.7090416   
260000000     -21.0948009   -175.0787964  21.5969391    164.4754028   -24.5551395   -3.2563651    -19.8735008   -58.8738594   
265000000     -21.1317005   -176.0798950  21.6036396    164.2106934   -24.5302200   -3.5436680    -19.8286209   -59.3190918   
270000000     -21.1332607   -177.0556030  21.5913906    163.9221039   -24.6222305   -3.4903641    -19.8757896   -59.5919304   
275000000     -21.1950302   -177.6262054  21.5938301    163.6728058   -24.5524693   -3.3080981    -19.8186607   -60.0891418   
280000000     -21.1245995   -177.7568054  21.5947094    163.4122009   -24.5697594   -4.2815418    -19.7959995   -61.2902718   
285000000     -21.1610394   -179.1029053  21.5923996    163.1421051   -24.6006203   -3.6586330    -19.7100906   -61.3776817   
290000000     -21.2539692   -179.6448059  21.5862808    162.8229980   -24.5791893   -4.1225791    -19.6730804   -62.0840302   
295000000     -21.2884293   179.5256958   21.5911293    162.5867004   -24.5498199   -3.9793191    -19.6637592   -62.7977409   
300000000     -21.2075500   179.2976990   21.5813808    162.2543030   -24.6761608   -4.5367908    -19.6257191   -63.3316803   
305000000     -21.2506199   178.1007996   21.5869904    162.0122986   -24.5621395   -4.4680500    -19.5966892   -63.6352997   
310000000     -21.2473602   177.5789032   21.5872707    161.7518005   -24.5402908   -4.6760330    -19.5931606   -64.3583298   
315000000     -21.3292999   176.9833069   21.5820408    161.4477997   -24.6118698   -5.0243740    -19.5823193   -64.8308411   
320000000     -21.3200207   176.0142059   21.5835304    161.1562042   -24.6098900   -4.5393610    -19.5568008   -65.6000366   
325000000     -21.3202801   175.4533997   21.5757694    160.8795929   -24.5850697   -5.0137000    -19.4871998   -66.3077011   
330000000     -21.3553009   175.2388000   21.5827904    160.6109009   -24.5694809   -5.0054941    -19.4727192   -66.7720871   
335000000     -21.3298302   174.1670990   21.5764008    160.3479004   -24.5528793   -5.7317181    -19.4285698   -67.3749771   
340000000     -21.3552208   173.9279022   21.5764198    160.0767975   -24.5001202   -5.4044342    -19.4349194   -68.3165436   
345000000     -21.3103905   173.5207977   21.5712109    159.8000946   -24.5640106   -5.5335050    -19.3994102   -68.9376068   
350000000     -21.2917900   172.8999023   21.5710793    159.4918060   -24.6306896   -5.6667590    -19.3586597   -69.3951874   
355000000     -21.3322697   171.6470032   21.5662003    159.2382965   -24.5495491   -5.7448859    -19.4109497   -70.2135010   
360000000     -21.3503799   171.1672974   21.5691891    158.9449005   -24.5486908   -6.2870498    -19.3501091   -70.4302521   
365000000     -21.3587608   170.5278015   21.5694599    158.6860046   -24.6238708   -6.1814170    -19.2453194   -71.3307800   
370000000     -21.3506393   170.3336945   21.5653591    158.4006042   -24.5683002   -6.6436911    -19.2403908   -72.0158386   
375000000     -21.4227600   169.2496948   21.5637703    158.1181946   -24.5638695   -6.3807740    -19.2153206   -72.5207901   
380000000     -21.3066292   168.7368011   21.5591297    157.8394928   -24.5372105   -6.9445672    -19.1634693   -73.3627930   
385000000     -21.3245296   168.2389984   21.5558491    157.5476990   -24.5449600   -6.6313548    -19.1641293   -73.7645721   
390000000     -21.3571892   167.6846924   21.5573502    157.2722015   -24.5590191   -7.2244339    -19.1048794   -74.5841064   
395000000     -21.3511105   167.3625031   21.5548496    156.9981995   -24.5468006   -7.2669392    -19.0482407   -74.9532700   
400000000     -21.4089108   166.8271027   21.5529308    156.6947937   -24.6133709   -7.5264120    -19.1021194   -75.5974121   
405000000     -21.4045391   166.7640076   21.5461502    156.4248047   -24.5252094   -7.4425321    -18.9987507   -76.4681473   
410000000     -21.4265003   166.1257019   21.5467300    156.1114960   -24.5601997   -8.1197510    -18.9857407   -77.0146103   
415000000     -21.4277401   165.5957031   21.5474091    155.8600006   -24.5986500   -7.8632798    -18.9125004   -77.1930695   
420000000     -21.4540997   165.5890961   21.5434608    155.5668030   -24.5545292   -7.7483459    -18.8950291   -77.8035431   
425000000     -21.5045509   164.4568939   21.5421791    155.2951050   -24.5392494   -8.4491405    -18.8481693   -78.2459869   
430000000     -21.4504604   164.2494965   21.5393009    155.0010986   -24.5588207   -8.0313339    -18.7902107   -79.1888885   
435000000     -21.4905109   163.8636017   21.5398998    154.7261963   -24.5762291   -8.4394598    -18.7082500   -79.9310913   
440000000     -21.4862995   163.1764984   21.5358105    154.4508972   -24.5509892   -8.7444658    -18.7106895   -80.4336090   
445000000     -21.4741802   162.6204071   21.5348797    154.1558075   -24.5749893   -8.9519911    -18.7295208   -80.8983231   
450000000     -21.4714108   162.1152954   21.5351601    153.8724976   -24.5238609   -8.5316362    -18.6726894   -81.5016327   
455000000     -21.5345097   161.2646027   21.5269699    153.5968933   -24.5188007   -8.6965561    -18.6142998   -82.2073669   
460000000     -21.5124302   161.0242004   21.5342693    153.3247070   -24.5605907   -9.2130690    -18.5343800   -82.6639481   
465000000     -21.5156593   160.3099060   21.5304298    153.0296021   -24.5995502   -9.2538290    -18.5580006   -83.3442307   
470000000     -21.5527000   159.4920044   21.5282192    152.7550964   -24.5249100   -9.3644543    -18.4885693   -83.4018402   
475000000     -21.5346699   159.4308929   21.5262394    152.4727936   -24.5786495   -9.5698986    -18.4538593   -84.6823196   
480000000     -21.6323204   159.1454926   21.5227604    152.1855927   -24.5681000   -9.3264246    -18.4225101   -84.9524078   
485000000     -21.6238594   158.2277985   21.5204697    151.9165955   -24.5858593   -9.3541441    -18.3753700   -85.4339600   
490000000     -21.6239700   157.7951965   21.5183601    151.6130066   -24.5491009   -9.7935886    -18.3183403   -86.1003571   
495000000     -21.6496391   157.1652069   21.5172997    151.3348999   -24.5620193   -10.2277498   -18.3061409   -86.3915787   
500000000     -21.6310501   157.1417999   21.5160809    151.0626068   -24.5635700   -10.1700201   -18.2522392   -86.9239120   
505000000     -21.7231808   156.8511047   21.5148506    150.7463074   -24.5722294   -10.1285496   -18.2313995   -87.5266113   
510000000     -21.7218094   156.0097961   21.5143108    150.4658966   -24.4973507   -10.5005999   -18.1883202   -87.7254868   
515000000     -21.7983303   156.1295929   21.5130291    150.2044067   -24.5243492   -10.3892803   -18.1162109   -88.5398712   
520000000     -21.7966194   155.3285065   21.5068493    149.9141998   -24.5676804   -10.6934996   -18.1433296   -88.8744278   
525000000     -21.7902908   154.8191986   21.5045109    149.6473999   -24.5279808   -11.0295601   -18.0727501   -89.7352066   
530000000     -21.7676506   154.0991974   21.5011292    149.3813019   -24.5236092   -10.9166002   -18.0718708   -90.1720581   
535000000     -21.8057098   153.9019928   21.5001297    149.0861969   -24.5179291   -11.2159405   -18.0684795   -90.2229233   
540000000     -21.8946095   153.7030029   21.4986191    148.7891998   -24.5443096   -11.2842903   -17.9729099   -91.1695328   
545000000     -21.9515095   153.3054047   21.4936409    148.5473022   -24.5218601   -11.4395800   -17.9572697   -91.7117920   
550000000     -21.9400692   152.9694977   21.4926395    148.2657013   -24.5300999   -11.6672297   -17.9482403   -92.1495667   
555000000     -22.0751991   152.5341949   21.4885902    147.9841003   -24.5459003   -11.4411297   -17.8738995   -92.5166779   
560000000     -22.0470695   152.3614960   21.4865398    147.6918945   -24.5055695   -11.5516300   -17.8096104   -92.9716187   
565000000     -22.1182709   152.1154938   21.4878902    147.4118958   -24.5540695   -11.7290697   -17.7947903   -93.3923416   
570000000     -22.1845207   151.3647003   21.4866009    147.1605988   -24.5186691   -11.9192600   -17.7451096   -93.5275269   
575000000     -22.1791992   151.4795074   21.4828701    146.8605042   -24.5445309   -11.8934498   -17.7151699   -94.2457504   
580000000     -22.1700306   150.9075012   21.4839706    146.6067047   -24.5395603   -12.1543102   -17.6626301   -94.5845108   
585000000     -22.1433201   150.4528046   21.4797707    146.3336029   -24.5499496   -12.0699596   -17.6811695   -95.2784729   
590000000     -22.2556190   150.2247009   21.4834805    146.0339050   -24.5388794   -12.1187401   -17.5826206   -95.4330063   
595000000     -22.2470398   149.7864075   21.4795494    145.7494965   -24.5443192   -12.6474400   -17.5675602   -96.0229034   
600000000     -22.2893295   149.4176025   21.4792995    145.4644012   -24.5412998   -12.9690104   -17.5237694   -96.2310867   
605000000     -22.2087708   148.7371063   21.4775791    145.1840973   -24.5265408   -13.0366497   -17.4732609   -96.8887863   
610000000     -22.3036194   148.4821014   21.4829006    144.9001007   -24.4749794   -13.2202702   -17.3999500   -96.8991776   
615000000     -22.3500309   148.1996002   21.4749794    144.6235046   -24.5287094   -13.4660902   -17.3992004   -97.6313629   
620000000     -22.3125305   147.8096924   21.4718399    144.3383942   -24.5506496   -13.3680201   -17.3554096   -98.0139465   
625000000     -22.4016304   147.3742065   21.4705391    144.0538025   -24.5088692   -13.3788004   -17.3224106   -98.4863663   
630000000     -22.4110603   146.6994019   21.4788609    143.7010040   -24.5575905   -13.4053802   -17.2972794   -98.5746613   
635000000     -22.4291306   146.4002991   21.4773407    143.4185028   -24.4974804   -13.4339399   -17.2250710   -99.1373215   
640000000     -22.4106808   145.6042938   21.4692497    143.1582947   -24.5312195   -13.8136396   -17.1744194   -99.7499084   
645000000     -22.4612999   145.4647980   21.4719505    142.8724060   -24.5386105   -14.2036695   -17.1609402   -100.1103973  
650000000     -22.4394207   144.9689026   21.4668102    142.5841980   -24.5684700   -13.9301205   -17.1515903   -100.5570984  
655000000     -22.5013199   144.4167938   21.4653797    142.3173065   -24.5317707   -14.3862104   -17.0824509   -100.8571014  
660000000     -22.5661697   144.0059967   21.4628506    142.0196991   -24.5374393   -13.9876404   -17.0644798   -101.1480026  
665000000     -22.6016407   143.8096008   21.4592495    141.7138977   -24.5672207   -14.3647804   -17.0716801   -101.7493973  
670000000     -22.6143608   143.0704041   21.4543304    141.4351044   -24.5376492   -14.2250099   -16.9623604   -101.9673004  
675000000     -22.6376896   142.2664032   21.4528503    141.1578979   -24.5555096   -14.6501598   -16.9776707   -102.3426971  
680000000     -22.7566509   142.7928009   21.4546909    140.8513031   -24.5013504   -14.9963398   -16.9095402   -102.8563004  
685000000     -22.7775898   141.6531067   21.4532604    140.5675964   -24.5584698   -15.2125797   -16.8924408   -103.1906967  
690000000     -22.7382793   141.0543060   21.4463806    140.3182983   -24.5280209   -15.1233597   -16.9004593   -103.4972992  
695000000     -22.8205299   141.0601044   21.4421501    139.9886017   -24.5365391   -14.8873901   -16.8333206   -104.2865982  
700000000     -22.8577194   140.2678986   21.4422398    139.7332001   -24.5285892   -15.5295401   -16.8206406   -104.3595963  
705000000     -22.8464909   139.4226990   21.4414406    139.4588928   -24.5198593   -15.5144100   -16.8139992   -104.9413986  
710000000     -22.8166103   139.7942963   21.4344807    139.1443939   -24.5326195   -15.3793602   -16.7776909   -105.5226974  
715000000     -22.8810196   138.8529053   21.4315701    138.8594055   -24.5276203   -15.8637896   -16.7567291   -105.6473007  
720000000     -22.9629803   138.9810944   21.4302692    138.5635986   -24.4902306   -15.6782198   -16.7040005   -105.9867020  
725000000     -22.9543495   137.7279053   21.4263000    138.2913971   -24.5018501   -15.6331596   -16.6461506   -106.5123978  
730000000     -22.9570503   137.6065063   21.4178200    137.9575043   -24.5245304   -16.2274094   -16.6373405   -106.9882965  
735000000     -23.0322304   136.9322052   21.4170704    137.6815948   -24.5412693   -16.4760303   -16.6067791   -107.4993973  
740000000     -23.0146103   136.1194000   21.4078903    137.3954010   -24.5461693   -16.3552895   -16.5702591   -107.4701996  
745000000     -23.0629902   135.6269073   21.4048405    137.1468048   -24.5427799   -16.2394104   -16.5856209   -108.0914993  
750000000     -23.0479698   134.9078064   21.3983097    136.8395996   -24.5549507   -16.6573009   -16.5303497   -108.5710983  
755000000     -23.0390205   134.6291046   21.3964901    136.5529938   -24.5325909   -16.9353695   -16.5377998   -108.8323975  
760000000     -23.1379910   133.9006042   21.3906708    136.2852936   -24.5824795   -17.1505108   -16.5029602   -109.2584991  
765000000     -23.1302509   132.8585968   21.3838596    136.0146027   -24.4773102   -17.1065903   -16.4724197   -109.8566971  
770000000     -23.1500397   132.5670013   21.3789005    135.7364044   -24.5283508   -16.9491501   -16.4542294   -109.9278030  
775000000     -23.2422295   131.4853058   21.3738499    135.4604034   -24.5732994   -17.2519093   -16.4345493   -110.0334015  
