!Mini-Circuits Laboratory
!S-Parameters
!Model: ZX60-V63+
!Run / Lot / Date Code: E114204 /  / NA
!Fixture: 
!Network Analyzer: PNA-X N5242A - 423 4 ports;  Serial number: 71932
!Date: 10/26/2011 at 11:42:03 AM
!S/N: Unit# 1 (Unit5)
!Tested with: 
!
# Hz  S  dB  R  50
!Frequency    S11 dB        S11 Deg       S21 dB        S21 Deg       S12 dB        S12 Deg       S22 dB        S22 Deg       
10000000      -7.3908110    -53.2970314   24.0383205    -159.4190063  -26.9811993   67.0763397    -9.2920389    38.0838089    
15000000      -8.4734716    -58.3591194   23.3778191    -171.0131989  -26.9174500   41.7111702    -9.4588528    5.1781011     
20000000      -10.2013502   -69.4867325   22.9344196    -177.7359009  -25.8153591   34.1711197    -10.9498301   -11.1568604   
25000000      -11.3992395   -78.5509186   22.5704308    179.0411072   -25.5015202   28.3133202    -12.1583900   -21.4530506   
30000000      -12.4529600   -84.0164413   22.3177395    177.8005066   -25.1234093   24.4022598    -12.9131098   -26.9496193   
35000000      -13.5018797   -89.2722168   22.1154308    176.8717041   -24.9873600   20.2417603    -13.7375698   -30.8160191   
40000000      -14.3884697   -94.8253784   21.9592304    176.1244965   -24.8547993   17.9420891    -14.5397301   -33.7614098   
45000000      -15.1232405   -99.5868073   21.8551292    175.5796967   -24.7246494   16.3974800    -15.1819696   -35.6039391   
50000000      -15.5648899   -103.5602036  21.7702904    175.3495026   -24.4697399   7.0919061     -15.7641201   -39.8274803   
55000000      -16.5373993   -107.3284988  21.6782398    175.1127930   -24.5625706   12.9563704    -16.2938404   -37.4174805   
60000000      -16.8637905   -112.9039993  21.5831909    174.7714996   -24.1154003   10.9010601    -16.6921196   -40.8595505   
65000000      -17.5336399   -114.5204010  21.5782108    174.5435028   -24.4904900   10.9070396    -17.0634804   -38.5389786   
70000000      -17.9750595   -117.7983017  21.5365791    174.3117065   -24.5772591   9.9615870     -17.3945904   -39.3355484   
75000000      -18.3901405   -120.8335037  21.5093803    174.0644073   -24.4662991   8.8792458     -17.7024307   -39.0377884   
80000000      -18.7405491   -123.2563019  21.4856491    173.7976990   -24.3920593   8.1082668     -17.9115295   -39.4811897   
85000000      -19.0519695   -126.5612030  21.4610405    173.5457001   -24.4312191   7.5155892     -18.1883297   -39.5343895   
90000000      -19.3795204   -129.6356964  21.4381905    173.3175964   -24.4595909   6.9453402     -18.4341698   -39.5444794   
95000000      -19.6661301   -131.5014954  21.4270592    173.0354004   -24.3884506   6.4746461     -18.6225891   -39.8032303   
100000000     -19.9158897   -134.0558929  21.4113102    172.7653046   -24.3451691   5.6438961     -18.7602501   -40.0863190   
105000000     -20.1103802   -136.0966949  21.3997192    172.4990997   -24.3821106   5.1997361     -18.9325008   -40.2780304   
110000000     -20.2903099   -138.3999023  21.3921909    172.2124023   -24.3279591   4.9245868     -19.0415401   -40.3760986   
115000000     -20.5034008   -140.3536072  21.3809204    171.9515991   -24.3751698   4.3809071     -19.1518192   -40.9424591   
120000000     -20.6128502   -142.7454987  21.3726597    171.7156067   -24.3377705   3.3948510     -19.2127705   -41.1692581   
125000000     -20.7653503   -144.6772003  21.3649807    171.4371948   -24.3834095   3.5706320     -19.3330708   -41.4920883   
130000000     -20.9075108   -146.3410950  21.3580303    171.1667023   -24.4312191   3.2072029     -19.3674202   -41.2907791   
135000000     -21.0126495   -148.1535034  21.3511600    170.9037018   -24.3534393   2.9619160     -19.4601402   -41.9925117   
140000000     -21.1643391   -149.9633026  21.3435593    170.6661987   -24.3199196   2.3095510     -19.5351009   -41.9091682   
145000000     -21.2768898   -151.5160980  21.3406391    170.3854065   -24.3127995   2.3357000     -19.5552998   -42.5564499   
150000000     -21.2655392   -153.2225037  21.3432808    170.1268005   -24.2559700   1.5159661     -19.6670094   -43.1017685   
155000000     -21.4046898   -154.4221039  21.3332005    169.8374023   -24.3235493   1.3567660     -19.6795597   -43.3626900   
160000000     -21.4757004   -156.4019928  21.3279591    169.5729065   -24.3251400   1.1439540     -19.7194004   -43.8041000   
165000000     -21.6350403   -157.6450043  21.3260098    169.3134003   -24.2935505   1.3155270     -19.7130909   -44.1559486   
170000000     -21.6115398   -159.3067017  21.3211498    169.0388947   -24.3050594   0.9379833     -19.8092499   -44.5180283   
175000000     -21.7038193   -160.2344055  21.3161697    168.7545929   -24.3224506   0.5829920     -19.8014393   -45.3135490   
180000000     -21.7343502   -162.1885986  21.3108692    168.4877930   -24.3480492   0.5052799     -19.8239708   -45.5132408   
185000000     -21.7651405   -163.3513031  21.3067894    168.2313995   -24.3199196   0.2869030     -19.9255791   -46.0916901   
190000000     -21.8687096   -164.4580994  21.3045292    167.9241943   -24.3511600   0.0672416     -19.8630409   -46.7140999   
195000000     -21.8778305   -165.7969055  21.2976303    167.6716003   -24.3094292   -0.3222522    -19.9012108   -47.2182388   
200000000     -21.8995399   -166.8742981  21.2984905    167.3675995   -24.2775192   -0.3648241    -19.9243507   -47.6035805   
205000000     -21.9409904   -168.0173035  21.2934895    167.1076965   -24.3442497   -0.8156933    -19.9117794   -48.5470085   
210000000     -21.9814396   -169.3222961  21.2801208    166.8314972   -24.3278599   -1.0452811    -20.0796108   -48.9782295   
215000000     -22.0773106   -170.1221008  21.2790604    166.5612030   -24.3383102   -1.4794670    -19.9531994   -49.3964500   
220000000     -22.0948792   -171.1943970  21.2772007    166.2548981   -24.3254204   -1.3749080    -19.9592094   -49.9526215   
225000000     -22.0726395   -172.7147980  21.2732105    166.0032959   -24.2964802   -1.6250360    -20.0232105   -50.5520096   
230000000     -22.1454296   -173.5088959  21.2719994    165.7055969   -24.3043499   -1.7892110    -19.9744301   -50.9345207   
235000000     -22.1036892   -174.0973969  21.2662601    165.4167023   -24.2944393   -1.9400600    -19.9641209   -51.7484398   
240000000     -22.1781502   -175.2514038  21.2603703    165.1558990   -24.2903996   -1.9439260    -19.9319191   -52.2101212   
245000000     -22.1532993   -176.1611023  21.2567997    164.8580933   -24.2769394   -2.4764080    -19.9205399   -52.7944298   
250000000     -22.3007603   -176.6858978  21.2607708    164.5737000   -24.2340603   -2.8998761    -19.9018707   -53.4765511   
255000000     -22.3755703   -178.1248932  21.2636108    164.2881927   -24.3240395   -2.4027939    -19.8487492   -53.4792900   
260000000     -22.2693005   -178.4712982  21.2586594    164.0068970   -24.3842106   -2.7337160    -19.8478508   -54.5005302   
265000000     -22.4204407   -179.4017944  21.2622395    163.7263947   -24.2436504   -2.7977469    -19.7473202   -55.2725792   
270000000     -22.3836708   179.4595032   21.2493992    163.4335938   -24.3311195   -2.6192081    -19.7772408   -55.1941605   
275000000     -22.4713593   179.0767975   21.2512207    163.1750031   -24.3715992   -3.2200971    -19.7539597   -56.1462288   
280000000     -22.4676399   178.6414948   21.2505798    162.9174042   -24.3250694   -2.7671371    -19.6815300   -56.4296989   
285000000     -22.4315891   177.4497070   21.2490196    162.6324005   -24.3526306   -3.7419741    -19.6830597   -57.0939217   
290000000     -22.5826206   176.8112946   21.2424908    162.3087006   -24.3327999   -3.7504711    -19.6329498   -57.7493210   
295000000     -22.6315994   175.3025970   21.2473202    162.0485992   -24.3220501   -4.1425142    -19.6070309   -58.3636398   
300000000     -22.5467796   175.8115997   21.2365494    161.7178955   -24.3361607   -4.3274040    -19.5309792   -59.0591812   
305000000     -22.6910706   174.5240021   21.2419205    161.4817047   -24.2712307   -3.9089291    -19.5505600   -59.3563690   
310000000     -22.6753292   173.8043976   21.2409000    161.2109985   -24.3486805   -4.1079059    -19.5360909   -59.7150688   
315000000     -22.7659702   172.8135986   21.2347908    160.9096985   -24.3336105   -4.3934102    -19.5460091   -60.4437218   
320000000     -22.7833805   171.9116058   21.2354507    160.6076965   -24.3278503   -4.2597518    -19.4638309   -61.0497894   
325000000     -22.8086700   171.3065948   21.2280502    160.3298035   -24.3586502   -4.6693239    -19.4080696   -61.3998985   
330000000     -22.9031105   170.8840027   21.2333603    160.0626068   -24.3571091   -5.0360050    -19.4004593   -61.9016113   
335000000     -22.8137493   169.6002960   21.2261295    159.7812042   -24.3644409   -4.8397398    -19.3214893   -62.4012489   
340000000     -22.9173794   169.6080933   21.2246895    159.5070953   -24.3240395   -5.1628251    -19.3183193   -63.2698402   
345000000     -22.9257603   169.0637970   21.2181892    159.2229004   -24.3415203   -5.5356641    -19.2711201   -63.7023506   
350000000     -22.8960094   168.1921997   21.2203903    158.9134064   -24.2808208   -5.3020158    -19.2655201   -64.2765503   
355000000     -22.9639091   166.9216003   21.2136993    158.6549988   -24.3926601   -5.6687560    -19.2982693   -64.5084763   
360000000     -23.1122093   166.3428040   21.2156696    158.3515015   -24.3933907   -5.8324571    -19.2134209   -64.8566895   
365000000     -23.1125393   165.5538025   21.2162209    158.0861969   -24.4106503   -5.6873531    -19.1301308   -65.5291595   
370000000     -23.1841393   165.5971069   21.2106495    157.8112030   -24.3434296   -5.8635230    -19.0955009   -66.0769730   
375000000     -23.2891502   164.0265045   21.2092209    157.5160980   -24.3221798   -6.0775952    -19.0802193   -66.3919983   
380000000     -23.1591892   163.7198029   21.2036304    157.2348938   -24.3040409   -6.2546291    -18.9988194   -67.0005264   
385000000     -23.2475605   162.7534027   21.2003593    156.9300995   -24.3394394   -6.3927670    -19.0505409   -67.5603867   
390000000     -23.3025894   162.4087067   21.2019405    156.6508026   -24.3256302   -6.5676742    -18.9559097   -68.2952805   
395000000     -23.3952007   162.0617981   21.1968994    156.3688965   -24.3610306   -6.6578970    -18.9437904   -68.2948074   
400000000     -23.5014400   161.3988953   21.1938305    156.0614014   -24.3110809   -6.8713169    -18.9621391   -68.9120331   
405000000     -23.4791794   161.0196991   21.1886997    155.8002014   -24.3361301   -7.0391560    -18.8883095   -69.4560471   
410000000     -23.5628796   160.2032013   21.1874504    155.4635925   -24.3596992   -7.0985708    -18.8219891   -69.8771286   
415000000     -23.6498394   159.6291046   21.1895199    155.2079926   -24.2630405   -7.3226399    -18.7937794   -70.3507690   
420000000     -23.6690102   159.4235992   21.1843109    154.9199982   -24.3283195   -7.5623679    -18.7467308   -70.6047592   
425000000     -23.7848492   157.7940979   21.1825905    154.6430969   -24.2836304   -7.4701452    -18.7308598   -71.0923080   
430000000     -23.7432899   157.8533936   21.1770592    154.3455048   -24.3091908   -7.3742990    -18.6541500   -71.9047775   
435000000     -23.8326797   157.3771057   21.1773396    154.0516052   -24.3150005   -7.7279849    -18.5938301   -72.2276764   
440000000     -23.8080292   156.1186981   21.1761208    153.7870026   -24.3091793   -7.9753609    -18.5887203   -72.6620331   
445000000     -23.8314800   155.2384033   21.1719093    153.4929962   -24.3276405   -8.1504192    -18.5745792   -73.2488708   
450000000     -23.8832893   154.5758057   21.1721096    153.1956940   -24.2878799   -8.5009956    -18.5392704   -73.7070618   
455000000     -23.9548206   153.4792938   21.1637592    152.9120941   -24.3195705   -8.2033129    -18.5139294   -74.2195282   
460000000     -24.0175591   153.0397949   21.1673908    152.6363983   -24.3212700   -8.7035484    -18.4451694   -74.7077026   
465000000     -24.0720005   151.9629059   21.1648903    152.3414001   -24.3127098   -8.2287321    -18.4630795   -75.3877411   
470000000     -24.1060200   151.2008057   21.1628609    152.0659027   -24.3376598   -8.9784517    -18.3528194   -75.3200378   
475000000     -24.0896893   150.8856049   21.1606407    151.7635040   -24.3119907   -8.7501040    -18.3835201   -76.2723389   
480000000     -24.2377110   150.2366943   21.1562901    151.4839020   -24.3364601   -9.0535221    -18.3272209   -76.5515594   
485000000     -24.2321205   149.3242035   21.1531696    151.1862030   -24.3337307   -9.1300039    -18.2803192   -76.9013290   
490000000     -24.2722607   148.5404968   21.1503391    150.8907013   -24.3177605   -9.3671474    -18.3021793   -77.6432190   
495000000     -24.3024197   147.5997925   21.1490898    150.6053009   -24.3472099   -9.5588961    -18.2782307   -77.9988174   
500000000     -24.3533401   147.6405945   21.1465893    150.3506012   -24.3269196   -9.7231140    -18.2389698   -78.5113831   
505000000     -24.4404507   146.7628937   21.1458607    150.0178070   -24.3079700   -9.6456356    -18.2064304   -78.9158401   
510000000     -24.3591003   146.1206055   21.1444206    149.7422028   -24.3675499   -9.7081804    -18.2168503   -79.3570633   
515000000     -24.6479702   145.9058075   21.1415596    149.4748993   -24.3335495   -9.9536896    -18.1474705   -79.8959579   
520000000     -24.6231995   144.8115997   21.1379795    149.1876068   -24.3169804   -10.2255697   -18.1414394   -80.3634567   
525000000     -24.5294704   144.1434937   21.1341896    148.9055939   -24.3230000   -10.0564899   -18.1147003   -81.0991287   
530000000     -24.5997505   143.1800995   21.1316204    148.6452942   -24.3212795   -10.0792103   -18.1108799   -81.1800766   
535000000     -24.6518307   142.7328033   21.1295605    148.3428040   -24.3029995   -10.4161501   -18.0813999   -81.5597763   
540000000     -24.6584301   142.7595978   21.1284294    148.0386047   -24.3441696   -10.3631096   -18.0591106   -82.2089005   
545000000     -24.6762409   141.8972015   21.1238804    147.7808075   -24.3197498   -10.6588001   -17.9941406   -82.8819427   
550000000     -24.7198391   141.2481995   21.1238499    147.5014038   -24.3130302   -10.6875496   -17.9992809   -83.3083725   
555000000     -24.8775806   140.5440063   21.1192303    147.2075958   -24.2672291   -10.9903803   -17.9272404   -83.6927185   
560000000     -24.8270493   140.0634003   21.1157207    146.8999023   -24.3537693   -11.2536001   -17.8921509   -83.9915237   
565000000     -24.9030895   139.5606995   21.1172504    146.6087036   -24.3074799   -11.1337099   -17.8892708   -84.8559036   
570000000     -24.9549294   138.4851990   21.1163807    146.3484039   -24.2950001   -11.2994604   -17.8685608   -84.6731720   
575000000     -24.9376907   138.0110931   21.1122494    146.0442047   -24.3061104   -11.3654604   -17.8096294   -85.5437469   
580000000     -24.9782696   137.0028992   21.1104794    145.7684021   -24.3253593   -11.3049297   -17.7852993   -85.9453506   
585000000     -24.9327793   136.5325012   21.1056194    145.4846039   -24.3075504   -11.2806396   -17.8050499   -86.7268906   
590000000     -25.0091305   135.9158936   21.1078892    145.1947021   -24.2354202   -11.6196003   -17.7047596   -86.8667831   
595000000     -24.9757996   135.2519073   21.1018505    144.8854065   -24.3220291   -11.6918201   -17.7098598   -87.6754913   
600000000     -25.0615807   134.3773041   21.1015396    144.5908051   -24.2822399   -12.0620604   -17.6814194   -87.7047501   
605000000     -24.9860001   133.7565002   21.0985603    144.3170929   -24.3101902   -12.0350800   -17.6500492   -88.4955215   
610000000     -24.9812908   133.5447998   21.1013699    144.0207977   -24.3450394   -12.3525496   -17.5944405   -88.7015228   
615000000     -25.0610600   132.2877960   21.0926991    143.7528992   -24.2662106   -12.1013098   -17.5943508   -88.9551392   
620000000     -24.9876709   131.9320068   21.0889206    143.4517059   -24.3025303   -12.5648804   -17.5585899   -89.7869415   
625000000     -25.1239300   131.1726074   21.0850792    143.1725006   -24.3090305   -12.5684299   -17.5467701   -90.4219131   
630000000     -25.1309891   130.5599060   21.0953503    142.8161926   -24.3231392   -12.9469700   -17.5049591   -90.5375214   
635000000     -25.0809803   130.2478027   21.0910206    142.5364990   -24.3155499   -13.0168695   -17.4235096   -91.0156097   
640000000     -25.1036491   129.3778076   21.0832291    142.2696991   -24.3142204   -12.5765600   -17.4452209   -91.7182617   
645000000     -25.1920891   128.6737061   21.0849705    141.9609985   -24.3601093   -12.9308596   -17.4345207   -92.1363525   
650000000     -25.1651802   128.2050018   21.0770092    141.6757965   -24.2897701   -12.9946003   -17.4035702   -92.5675812   
655000000     -25.1994991   127.5510025   21.0757294    141.4093933   -24.2949104   -13.3971500   -17.3750191   -93.0659332   
660000000     -25.2620201   126.5522995   21.0727406    141.1132050   -24.2911797   -13.2378397   -17.3502197   -93.2888031   
665000000     -25.2449093   125.7181015   21.0668392    140.7911072   -24.3324604   -13.6879396   -17.3546391   -93.7473221   
670000000     -25.2635002   124.4496002   21.0602798    140.5279999   -24.3367004   -13.5066700   -17.2821903   -94.2198334   
675000000     -25.2465496   123.9949036   21.0588703    140.2337952   -24.3009396   -13.9117298   -17.2772598   -94.4832001   
680000000     -25.4462299   123.7360001   21.0566902    139.9300995   -24.3064404   -13.5669804   -17.2222404   -94.9568863   
685000000     -25.3475208   122.4254990   21.0569592    139.6517029   -24.2913208   -13.5161200   -17.2175903   -95.4199295   
690000000     -25.3365803   121.6523972   21.0481091    139.3869934   -24.3307400   -14.2192001   -17.1890602   -95.5335312   
695000000     -25.4083195   120.8899994   21.0429192    139.0709076   -24.3163700   -14.7671003   -17.1468906   -96.1924133   
700000000     -25.4242001   120.3156967   21.0425301    138.8112030   -24.2642994   -14.7330303   -17.1638508   -96.6212311   
705000000     -25.4011993   118.8533020   21.0399094    138.5453033   -24.3241100   -14.5505505   -17.1564808   -97.0300598   
710000000     -25.4568195   118.8788986   21.0314503    138.2382965   -24.3386402   -14.5489798   -17.1171494   -97.6428070   
715000000     -25.5191803   118.0560989   21.0259705    137.9530945   -24.3067303   -14.4818602   -17.0935402   -97.8741837   
720000000     -25.7322292   117.3702011   21.0251598    137.6775970   -24.3695202   -14.3651400   -17.0555191   -98.1082535   
725000000     -25.5346699   116.3037033   21.0213203    137.3903961   -24.3241291   -14.4722300   -17.0102901   -98.5916672   
730000000     -25.6375008   116.2886963   21.0135593    137.0783997   -24.2965794   -15.1033401   -16.9831791   -99.1836472   
735000000     -25.7156200   114.7706985   21.0109596    136.8099976   -24.3281307   -15.0979605   -16.9415607   -99.4642334   
740000000     -25.7275009   113.8786011   21.0017300    136.5352020   -24.3232994   -15.3235502   -16.8949203   -99.6173630   
745000000     -25.7055397   112.9830017   21.0000706    136.2915039   -24.3229694   -15.5035496   -16.9289303   -99.9656677   
750000000     -25.8089695   111.7805023   20.9954491    135.9933929   -24.2919598   -15.6948500   -16.8771992   -100.5230026  
755000000     -25.7896099   111.9088974   20.9938698    135.7052002   -24.3168297   -15.3941498   -16.8456593   -100.7699966  
760000000     -25.8807297   110.2582016   20.9882107    135.4566040   -24.3572407   -15.7502899   -16.8427391   -101.2097015  
765000000     -25.9033604   109.2068024   20.9834499    135.1862946   -24.3282909   -15.7874403   -16.8097401   -101.6904984  
770000000     -25.9971905   108.2876968   20.9811592    134.9170990   -24.3183594   -15.8151999   -16.7902203   -101.9167023  
775000000     -26.0370998   106.6091003   20.9772205    134.6378937   -24.2662697   -15.9657497   -16.7436905   -102.0692978  
