#  HZ   S   RI   R     50.00 
! Rohde & Schwarz Vector Network Analyzer 
! Rohde-Schwarz,ZNB8-4Port,REDACTED,3.12
! Created: UTC 3/23/2026, 6:27:21 PM
! zx60-P162LN+
! freq[Hz]                re:S11                  im:S11                  re:S21                  im:S21                  re:S12                  im:S12                  re:S22                  im:S22
 1.000000000000000E8    -7.007151862897565E-1    6.761024128922799E-1    2.189618521146653E-1    4.095220129299017E-1    1.435853012596503E-5   -3.443151352348420E-4    9.190708634322049E-1    8.110111140969216E-2
 1.095000000000000E8    -4.080262931374768E-1    8.818293093516125E-1    3.725740856321734E-1    2.957858509032473E-1   -1.991850599317416E-4   -2.320043979408025E-4    8.708749670132583E-1   -2.851392446083503E-1
 1.190000000000000E8    -6.164288649145621E-2    9.680312459770928E-1    4.551549565016549E-1    1.217848515223799E-1   -1.426964374413163E-4   -5.229750685917539E-4    6.861421411421413E-1   -5.947227217895027E-1
 1.285000000000000E8     2.937183534092818E-1    9.230593288373746E-1    4.415162733268806E-1   -6.531419041969937E-2   -1.917532951997009E-4   -8.516068873185984E-6    4.048486150417882E-1   -8.020950613916512E-1
 1.380000000000000E8     6.090105815726239E-1    7.535831717184956E-1    3.437021184122140E-1   -2.095521982327153E-1   -1.354086145747781E-4   -1.722834256547653E-4    7.537214010453867E-2   -8.865741301998695E-1
 1.475000000000000E8     8.428883322258882E-1    4.785187804498784E-1    2.067713096847020E-1   -2.720745801272902E-1   -2.741102611112317E-4   -1.575909294782498E-4   -2.563687283861470E-1   -8.407284144527375E-1
 1.570000000000000E8     9.596196747579692E-1    1.402875603349157E-1    8.336224921497981E-2   -2.572595444537345E-1   -1.166353015380256E-4    1.591156606377642E-4   -5.397450913336636E-1   -6.788548841923201E-1
 1.665000000000000E8     9.449672479278950E-1   -2.184148532549298E-1    9.581442795280648E-3   -1.884057501229618E-1   -1.338964533247609E-4   -1.072788518748576E-4   -7.389163075102446E-1   -4.308064965105259E-1
 1.760000000000000E8     7.993519990571607E-1   -5.470249986631985E-1   -2.474266920824821E-3   -1.054734465857734E-1   -1.024014027668099E-4    1.842494676712376E-4   -8.341143475735930E-1   -1.321944782455368E-1
 1.855000000000000E8     5.422145495579228E-1   -8.016234436040161E-1    5.370827497153832E-2   -4.320598940770221E-2   -8.877533526618907E-5    6.283436927512587E-5   -8.125744164680807E-1    1.758509346540454E-1
 1.950000000000000E8     2.137434839013770E-1   -9.413134086263164E-1    1.574331153446794E-1   -3.717055790754796E-2   -1.953896487351110E-4    9.765712883780523E-5   -6.845988483797349E-1    4.489363445422612E-1
 2.045000000000000E8    -1.409477368427342E-1   -9.515517360046719E-1    2.783750723515120E-1   -1.218127562131797E-1    1.103955839405897E-4   -7.435420539906978E-5   -4.700658047669012E-1    6.558685643503714E-1
 2.140000000000000E8    -4.763614417796436E-1   -8.329113113165773E-1    3.563572063483285E-1   -3.117418866441262E-1   -2.552482364107118E-4    1.231573383640623E-4   -2.030256795158848E-1    7.681430598544982E-1
 2.235000000000000E8    -7.431803435706203E-1   -6.011185599665014E-1    3.195365633166765E-1   -5.881956990066828E-1   -1.947068004704257E-4   -2.752995951070460E-4    8.590463209488707E-2    7.774435614772379E-1
 2.330000000000000E8    -9.061209082568782E-1   -2.901379029224559E-1    1.060046401077423E-1   -8.789458331125197E-1   -4.271839835817748E-4   -7.069561046376180E-6    3.517247383027086E-1    6.877004036496365E-1
 2.425000000000000E8    -9.462325032331137E-1    5.693206282520399E-2   -2.995529041806338E-1   -1.071721553951341      -7.081405121213370E-5    9.174552509655919E-5    5.653985907395137E-1    5.091135882426874E-1
 2.520000000000000E8    -8.577857731204898E-1    3.944228454029703E-1   -8.317923075592177E-1   -1.053909206654951      -2.847586859341803E-4    3.158998449497913E-4    6.981312013585317E-1    2.711290595130292E-1
 2.615000000000000E8    -6.559814260093602E-1    6.773428133935290E-1   -1.366204356725172      -7.739409329275155E-1   -1.650372096862671E-4    5.944036814228241E-4    7.365333925019301E-1    4.045431338837058E-3
 2.710000000000000E8    -3.627653788262438E-1    8.667390517072726E-1   -1.783149210808729      -2.501404321131099E-1    5.073486112973211E-4    9.582066537382979E-4    6.795460356010985E-1   -2.531017303985073E-1
 2.805000000000000E8    -2.330707320203073E-2    9.371690900321565E-1   -1.986533881076309       4.608561169526618E-1    4.115594076154469E-4    1.167676485676706E-3    5.366595672457896E-1   -4.706102994411197E-1
 2.900000000000000E8     3.202452547814554E-1    8.781693559534619E-1   -1.917553774793967       1.277958604819406       8.666555265469816E-4    6.309005091244428E-4    3.266123708903195E-1   -6.171743644291796E-1
 2.995000000000000E8     6.196292869616505E-1    6.969965466426421E-1   -1.521993161702227       2.108439502854828       1.506706601814663E-3    3.977757768129747E-4    8.484963679285999E-2   -6.812358236385433E-1
 3.090000000000000E8     8.304021320015446E-1    4.190770761499564E-1   -7.735558727438429E-1    2.837618222956232       1.626399389841459E-3   -2.326879963206712E-4   -1.582209742193172E-1   -6.555232785243403E-1
 3.185000000000000E8     9.243108646710858E-1    8.399036000557784E-2    3.283399479251033E-1    3.312971000624368       1.346520621808487E-3   -1.044129020299387E-3   -3.708134992676610E-1   -5.448257977056453E-1
 3.280000000000000E8     8.876660664264441E-1   -2.619094997214743E-1    1.709580937645646       3.353272540210070       1.314734408175197E-3   -1.699173465548568E-3   -5.291992336452830E-1   -3.709774215344668E-1
 3.375000000000000E8     7.224861393385092E-1   -5.696678192503962E-1    3.190613831087521       2.766154340782745       5.945650440946340E-4   -2.082394126329077E-3   -6.089592776986745E-1   -1.569588258324859E-1
 3.470000000000000E8     4.582949017134390E-1   -7.926219763512889E-1    4.451613110981084       1.488174794740488      -4.119455523424295E-4   -2.714693318093423E-3   -6.127365028972649E-1    6.972725443993801E-2
 3.565000000000000E8     1.310810766179931E-1   -9.000226161171279E-1    5.129781181420036      -3.968844992698433E-1   -1.145588016315256E-3   -2.153135827957158E-3   -5.349856104051812E-1    2.764404916775028E-1
 3.660000000000000E8    -2.073194097778331E-1   -8.789647874816486E-1    4.953794046486363      -2.541718395809717      -2.063424987801604E-3   -2.199812013323805E-3   -3.895133688398319E-1    4.360578042595557E-1
 3.755000000000000E8    -5.144907381680633E-1   -7.357457754678095E-1    3.850772523689144      -4.555086864249858      -2.791879527369194E-3   -1.181272363445406E-3   -2.007519957138171E-1    5.334170991385837E-1
 3.850000000000000E8    -7.421712535832015E-1   -4.892908631048780E-1    1.940808393681401      -6.004386017044999      -3.712195427485744E-3    4.659283470589990E-5    3.071465200152889E-3    5.579121277592628E-1
 3.945000000000000E8    -8.622006186311475E-1   -1.791614184181666E-1   -4.575538463097300E-1   -6.653367642371768      -3.760064260138551E-3    1.363312367902572E-3    1.991147662759186E-1    5.074553626017770E-1
 4.040000000000000E8    -8.590262582328446E-1    1.515581129228634E-1   -3.029735470453876      -6.345010373023046      -3.229989413449401E-3    3.181115286142196E-3    3.553660017646642E-1    3.935552524612916E-1
 4.135000000000000E8    -7.355773077880249E-1    4.542118707342395E-1   -5.423964694258628      -5.087901523997222      -1.498352383526444E-3    4.270666161743954E-3    4.593837726754731E-1    2.315016814033942E-1
 4.230000000000000E8    -5.116311274274431E-1    6.846847772375774E-1   -7.300539535345012      -2.945296571373657       2.380230886578096E-5    4.797273957412218E-3    5.023073459713304E-1    4.833170186631786E-2
 4.325000000000000E8    -2.204873689106553E-1    8.153643897075317E-1   -8.347852790387071      -8.471684503627575E-2    1.860157242609953E-3    4.781354139370859E-3    4.757405845489248E-1   -1.296803915339738E-1
 4.420000000000000E8     9.485158479033129E-2    8.282564513790237E-1   -8.271129405836364       3.164415821644450       3.375639689370321E-3    4.135286810361292E-3    3.838528072541041E-1   -2.863165538647733E-1
 4.515000000000000E8     3.903950691365876E-1    7.236168800180297E-1   -6.864952295405677       6.389957792188798       5.188775737320534E-3    2.909228430694716E-3    2.502626393326452E-1   -3.943747041589578E-1
 4.610000000000000E8     6.194851230355553E-1    5.210134709796072E-1   -4.189683094832991       8.952270317130026       6.017236127686428E-3    8.737157913994558E-4    9.021774249006630E-2   -4.450358347962758E-1
 4.705000000000000E8     7.547585924782774E-1    2.524697723582683E-1   -5.217207483402807E-1    1.033959653643165E1     5.905492406166252E-3   -1.285577409435490E-3   -7.335474668188502E-2   -4.353831088671790E-1
 4.800000000000000E8     7.832688145868212E-1   -4.370749623444465E-2    3.566275987666192       1.018710773544351E1     5.711082570828889E-3   -3.804051222466210E-3   -2.167791358199600E-1   -3.695825084442629E-1
 4.895000000000000E8     6.987583216583854E-1   -3.243361915191395E-1    7.388894509107831       8.383118889925708       4.069756202054125E-3   -5.754301975369718E-3   -3.183076161916320E-1   -2.578998512863224E-1
 4.990000000000000E8     5.192738267464421E-1   -5.518329247390291E-1    1.029419214281025E1     5.158419742250854       1.770739496475923E-3   -7.335942240086255E-3   -3.778269290135428E-1   -1.230964505247279E-1
 5.085000000000000E8     2.705754974716709E-1   -6.903360173484426E-1    1.179656400037521E1     1.001441721433360      -1.047341311266893E-3   -8.015661894687326E-3   -3.838390535534589E-1    1.762104758103403E-2
 5.180000000000000E8    -5.523127742245250E-3   -7.243903187906384E-1    1.163654903014756E1    -3.505380589211131      -3.967621054392322E-3   -7.299174028956656E-3   -3.452224712714496E-1    1.460287728893406E-1
 5.275000000000000E8    -2.688094980154159E-1   -6.535656859924817E-1    9.807498532267408      -7.730880481016018      -6.402107611168279E-3   -5.325401839561555E-3   -2.579961598976145E-1    2.505585206657289E-1
 5.370000000000000E8    -4.780710078421704E-1   -4.913089893700284E-1    6.469173464046371      -1.107970381932357E1    -8.146691328579626E-3   -2.780495702640728E-3   -1.502643408206170E-1    3.207293593805243E-1
 5.465000000000000E8    -6.065016865240055E-1   -2.705347488782755E-1    1.980188844209263      -1.303981493899726E1    -8.842648156206482E-3    5.103269800700506E-4   -2.467630427744042E-2    3.405674300560459E-1
 5.560000000000000E8    -6.434851986301939E-1   -2.791355473452973E-2   -3.022394149699406      -1.319688898040704E1    -8.523293508527676E-3    3.574089851344757E-3    1.003678342968111E-1    3.148791607587741E-1
 5.655000000000000E8    -5.885829619084983E-1    2.041726202159232E-1   -7.875141866500059      -1.137114886114616E1    -7.088195159287984E-3    6.487007872056280E-3    1.965547680075325E-1    2.530235947591792E-1
 5.750000000000000E8    -4.596971234747321E-1    3.930440414142503E-1   -1.177397173989007E1    -7.787059713799181      -4.349860490890890E-3    8.837379918345425E-3    2.671832621845228E-1    1.569244399429807E-1
 5.845000000000000E8    -2.761396994012533E-1    5.170292905969647E-1   -1.399850203497635E1    -2.903722920203800      -1.201886956340127E-3    1.021861419754484E-2    2.925009228555348E-1    5.233413319915344E-2
 5.940000000000000E8    -6.665802380545688E-2    5.643895877634241E-1   -1.420474515565632E1     2.508586151162693       2.757192179232626E-3    1.002350194470112E-2    2.892537121062979E-1   -5.302601400590801E-2
 6.035000000000000E8     1.404607863361924E-1    5.365212953050932E-1   -1.237750241838033E1     7.576500631534963       6.061360851749699E-3    8.581979524962082E-3    2.442350023788163E-1   -1.434338695982027E-1
 6.130000000000000E8     3.196682262777091E-1    4.353385644295016E-1   -8.831154215148290       1.159018537923163E1     9.258641408898607E-3    5.591288816266981E-3    1.785342380362229E-1   -2.138064748574478E-1
 6.225000000000000E8     4.451714117562068E-1    2.775136041802743E-1   -4.084707654288700       1.403855212011830E1     1.074588591177087E-2    2.181141470520468E-3    9.510976206447321E-2   -2.553663066533615E-1
 6.320000000000000E8     4.972760746638828E-1    8.920517093780177E-2    1.209591164175557       1.461315567906471E1     1.090891239092230E-2   -1.864668191063588E-3    3.909989231662433E-3   -2.728582861522366E-1
 6.415000000000000E8     4.778816373086430E-1   -9.733969984833844E-2    6.330529250366393       1.333584958984193E1     9.836363781848215E-3   -5.605636405884574E-3   -8.797348117826990E-2   -2.544905654657285E-1
 6.510000000000000E8     3.900987980259661E-1   -2.530916251795670E-1    1.074149462345983E1     1.031217899847929E1     7.071766627711239E-3   -8.553230766668411E-3   -1.684846598309316E-1   -2.037405666406175E-1
 6.605000000000000E8     2.563540842236012E-1   -3.594509157955140E-1    1.379813656597681E1     5.872836525719394       3.648713463938596E-3   -1.052917856071190E-2   -2.302376768686400E-1   -1.301978894833903E-1
 6.700000000000000E8     1.040678478161285E-1   -4.058196331900029E-1    1.514399609734726E1     5.876731316217876E-1    6.901834265636325E-5   -1.120736940361973E-2   -2.553760575180993E-1   -3.998075702028521E-2
 6.795000000000000E8    -4.271112511804792E-2   -3.939302711594184E-1    1.445520508324285E1    -4.922104662995091      -3.742855346254741E-3   -1.076319354248670E-2   -2.461483963472929E-1    5.342202630942863E-2
 6.890000000000000E8    -1.668137168496905E-1   -3.352816149988576E-1    1.177752451195187E1    -9.850037955838374      -7.433112020797168E-3   -9.105411822467031E-3   -2.104606972863461E-1    1.230399035634822E-1
 6.985000000000000E8    -2.626787376134732E-1   -2.438658369779201E-1    7.423783336613013      -1.346648853193106E1    -1.016297429927027E-2   -5.896846656483989E-3   -1.500821280315175E-1    1.859700918609121E-1
 7.080000000000000E8    -3.176478417230971E-1   -1.313294267498335E-1    2.091999709004635      -1.519093981044168E1    -1.172074493326099E-2   -2.289337516773382E-3   -7.638001478490486E-2    2.121448493163973E-1
 7.175000000000000E8    -3.300589577488927E-1   -1.119838142668750E-2   -3.459351005873410      -1.484210366335186E1    -1.206434447237777E-2    1.886734983611638E-3   -1.969519996383055E-3    2.240395970776136E-1
 7.270000000000000E8    -3.016522227165386E-1    1.070119899719851E-1   -8.446114188012878      -1.254920331207526E1    -1.081518061803433E-2    6.319066448988633E-3    6.204329201386577E-2    2.084784924029250E-1
 7.365000000000000E8    -2.333475905712531E-1    2.022981054578479E-1   -1.218703060568509E1    -8.735553404109792      -7.797609376261339E-3    9.709204165715375E-3    1.268915291711886E-1    1.802965964415977E-1
 7.460000000000000E8    -1.338016647237026E-1    2.644477038416700E-1   -1.432456956716711E1    -3.930785581488460      -4.082989266181441E-3    1.167968839201176E-2    1.782481460851961E-1    1.279664697423504E-1
 7.555000000000000E8    -2.292003247544674E-2    2.829365042607767E-1   -1.469795323545163E1     1.249900657080000       1.529079169325774E-4    1.208286487559573E-2    2.170583926569698E-1    6.120440025997159E-2
 7.650000000000000E8     8.133311064553068E-2    2.564057717573775E-1   -1.330904973505422E1     6.187313842660998       4.492243081436998E-3    1.139915967636949E-2    2.333433661182309E-1   -1.375954781541437E-2
 7.745000000000000E8     1.641620673869719E-1    1.955332235898264E-1   -1.033267325471206E1     1.033242504579715E1     7.892786096246487E-3    9.324337165491725E-3    2.175442259101105E-1   -9.294684016062893E-2
 7.840000000000000E8     2.115860233206080E-1    1.144115272917700E-1   -6.172740332567987       1.321281738672695E1     1.053261294472048E-2    6.298913728944787E-3    1.715470729864722E-1   -1.608964386937370E-1
 7.935000000000000E8     2.219703448764584E-1    2.752817225581118E-2   -1.239893762089089       1.452599365605353E1     1.204985535923513E-2    2.359132593604218E-3    1.018559874153465E-1   -2.088368697346864E-1
 8.030000000000000E8     2.050868845179947E-1   -5.164201098042109E-2    3.882745330584099       1.406275831584759E1     1.227040404762688E-2   -1.758009353863317E-3    2.800382344078742E-2   -2.269479623032009E-1
 8.125000000000000E8     1.621105040576772E-1   -1.110899789945440E-1    8.481477675747755       1.182277881399963E1     1.107685138535897E-2   -5.776357786389776E-3   -5.281678234115583E-2   -2.216052501539057E-1
 8.220000000000000E8     1.081566762502583E-1   -1.504130460777306E-1    1.201601796463555E1     8.096611449423438       8.529620813324134E-3   -9.191548756767524E-3   -1.188577610842532E-1   -1.911528327993950E-1
 8.315000000000000E8     4.784314889778252E-2   -1.709682573785104E-1    1.398507147285380E1     3.413358230322523       4.984048935729174E-3   -1.148682988528729E-2   -1.717892280836918E-1   -1.367183390390499E-1
 8.410000000000000E8    -1.267094858732798E-2   -1.687503640904002E-1    1.419610543630534E1    -1.616218277784345       6.522547901222899E-4   -1.252149382967129E-2   -2.048988470870077E-1   -8.143051361267158E-2
 8.505000000000000E8    -6.920004306928311E-2   -1.476266447003034E-1    1.262819928267621E1    -6.357862508840915      -3.201601527988936E-3   -1.217395405168768E-2   -2.215596328016775E-1   -1.011127562192644E-2
 8.600000000000000E8    -1.124611089146999E-1   -1.075006632555403E-1    9.582624172147447      -1.014566580028369E1    -7.127886892466220E-3   -1.028266596798128E-2   -2.136395195951401E-1    5.722461459492437E-2
 8.695000000000000E8    -1.380797430477352E-1   -5.444065680287935E-2    5.504292378323870      -1.269521219076597E1    -1.012282359264402E-2   -7.441021739056606E-3   -1.897525134556723E-1    1.272580583534647E-1
 8.790000000000000E8    -1.399854561895335E-1    2.139325387329055E-3    8.879696809796926E-1   -1.365523581316361E1    -1.208581389512640E-2   -3.411880458865593E-3   -1.398793944156451E-1    1.822201891900357E-1
 8.885000000000000E8    -1.204247145932156E-1    5.281218753548705E-2   -3.716191662069871      -1.305365319093838E1    -1.242566507743685E-2    5.214288067105489E-4   -7.299807072514790E-2    2.248814493005191E-1
 8.980000000000000E8    -8.482002211446756E-2    9.137063547356807E-2   -7.835467066428274      -1.096486047727995E1    -1.145415600301814E-2    4.528258144137055E-3    5.206109572233717E-3    2.341881764448291E-1
 9.075000000000000E8    -3.749817626076269E-2    1.092854202861556E-1   -1.098959907566788E1    -7.648476325102886      -9.642682452423629E-3    7.992218190904480E-3    8.491329188804869E-2    2.208737541344161E-1
 9.170000000000000E8     6.532697481404041E-3    1.057537994396510E-1   -1.284795426463523E1    -3.470458208212078      -6.324346374207978E-3    1.076301417228947E-2    1.545874572145030E-1    1.845919513185116E-1
 9.265000000000000E8     4.431658582766815E-2    8.921554349499260E-2   -1.319982686697398E1     1.042066314535021      -2.304179978163188E-3    1.223283441211891E-2    2.061066410507309E-1    1.261515992231188E-1
 9.360000000000000E8     7.168908424877384E-2    6.171842658712456E-2   -1.199245983857507E1     5.428999109730114       1.763035507572929E-3    1.238655139384145E-2    2.296124685997787E-1    5.381200283986427E-2
 9.455000000000000E8     8.500683213533909E-2    2.695976344491262E-2   -9.399232059050606       9.106992857048374       5.620368391206445E-3    1.102691432961796E-2    2.363991688237693E-1   -2.246739349468662E-2
 9.550000000000000E8     8.601858494113405E-2   -7.413461129951855E-3   -5.711996651319034       1.165232095995904E1     9.124618695835422E-3    8.621152412461463E-3    2.165377408858465E-1   -9.841538692167662E-2
