#  HZ   S   RI   R     50.00 
! Rohde & Schwarz Vector Network Analyzer 
! Rohde-Schwarz,ZNB8-4Port,REDACTED,3.12
! Created: UTC 3/23/2026, 9:16:31 PM
! MCL ANNE-50+
! freq[Hz]                re:S11                  im:S11
 1.000000000000000E4     2.858247376623104E-2   -4.572894219811408E-2
 4.250995000000000E7     6.280966918011348E-3   -6.211570473240400E-3
 8.500990000000000E7    -3.244457989888388E-3   -8.758529899717911E-3
 1.275098500000000E8    -7.830760811102035E-3   -1.559135379220276E-3
 1.700098000000000E8    -1.607327933804422E-3    4.286100515270107E-3
 2.125097500000000E8     4.888024766241309E-3   -5.758089714428442E-4
 2.550097000000000E8     2.749573667628823E-4   -8.542824768058999E-3
 2.975096500000000E8    -9.214854098984659E-3   -5.185231724709425E-3
 3.400096000000000E8    -8.997247687969038E-3    5.719711613134000E-3
 3.825095500000000E8     9.429499835509706E-4    9.964943671606193E-3
 4.250095000000000E8     7.931058462617184E-3    1.967463883737597E-3
 4.675094500000000E8     3.540588896451339E-3   -5.985937219834413E-3
 5.100094000000000E8    -3.866419712493404E-3   -3.188864043980294E-3
 5.525093500000000E8    -2.265285749315445E-3    4.895925640160610E-3
 5.950093000000000E8     6.685592575848072E-3    4.649421188555419E-3
 6.375092500000000E8     9.059384353416808E-3   -3.624011679033488E-3
 6.800092000000000E8     2.573403420556668E-3   -8.210970315984376E-3
 7.225091500000000E8    -2.627707619667287E-3   -3.727745412959112E-3
 7.650091000000000E8    -1.630401643650929E-5    1.702174234703649E-3
 8.075090500000000E8     5.627528620118269E-3   -6.561356108405304E-4
 8.500090000000000E8     3.967737842813824E-3   -7.624834082657891E-3
 8.925089500000000E8    -3.580010511696287E-3   -6.753398281628724E-3
 9.350089000000000E8    -5.774428227812983E-3    8.553749050346401E-4
 9.775088500000000E8     1.454143010795614E-3    5.022166515767639E-3
 1.020008800000000E9     7.463272248517836E-3   -4.210143946742858E-4
 1.062508750000000E9     3.997245581303269E-3   -7.784102574244362E-3
 1.105008700000000E9    -4.455356511660007E-3   -7.712330800915846E-3
 1.147508650000000E9    -7.644152139349839E-3    2.684259932809126E-4
 1.190008600000000E9    -2.533827831346966E-3    5.772095668450792E-3
 1.232508550000000E9     2.888444204179154E-3    2.948737863378527E-3
 1.275008500000000E9     3.233223087406396E-4   -2.075759132305656E-3
 1.317508450000000E9    -5.578339759200979E-3    2.114510760906671E-4
 1.360008400000000E9    -5.203985958295930E-3    7.947063218158520E-3
 1.402508350000000E9     3.167125251421661E-3    1.148512971689345E-2
 1.445008300000000E9     8.505020383421045E-3    4.471725303718404E-3
 1.487508250000000E9     4.339577349550243E-3   -3.235367946659006E-3
 1.530008200000000E9    -4.559576108861792E-3   -1.439048068420019E-3
 1.572508150000000E9    -6.080984359444587E-3    8.378619598260017E-3
 1.615008100000000E9     3.183235894023713E-3    1.269159107147025E-2
 1.657508050000000E9     1.014497894601468E-2    5.550830071826286E-3
 1.700008000000000E9     5.398636555411982E-3   -4.523377681231232E-3
 1.742507950000000E9    -6.380452037423937E-3   -2.475971422510804E-3
 1.785007900000000E9    -8.651190616042031E-3    9.661106774626975E-3
 1.827507850000000E9     2.769623467421228E-3    1.589840236888848E-2
 1.870007800000000E9     1.385297648994349E-2    7.306310675143076E-3
 1.912507750000000E9     9.727980577164751E-3   -6.312728365700398E-3
 1.955007700000000E9    -3.544260809376973E-3   -8.214720229678330E-3
 1.997507650000000E9    -9.353307493706560E-3    1.275773428506994E-3
 2.040007600000000E9    -3.694035975394812E-3    7.606208767403010E-3
 2.082507550000000E9     1.453880742921382E-3    3.106537697387180E-3
 2.125007500000000E9    -2.954408044138431E-3   -2.397441356111876E-3
 2.167507450000000E9    -1.041218692210132E-2    1.567303973000805E-3
 2.210007400000000E9    -8.631235525648057E-3    1.017635592267533E-2
 2.252507350000000E9    -8.425839370501487E-4    9.147729327403742E-3
 2.295007300000000E9    -8.462690441321145E-4    1.529443815895482E-3
 2.337507250000000E9    -9.536512636133507E-3    8.814140313677918E-4
 2.380007200000000E9    -1.304800504594761E-2    1.112633700874873E-2
 2.422507150000000E9    -2.739032720695534E-3    1.947631528273796E-2
 2.465007100000000E9     9.812206349820289E-3    1.188665077191425E-2
 2.507507050000000E9     6.798500935425187E-3   -2.270572534329039E-3
 2.550007000000000E9    -6.064144035824053E-3   -2.661713956850634E-3
 2.592506950000000E9    -8.548314060308130E-3    8.996451044622426E-3
 2.635006900000000E9     2.920826514787178E-3    1.338150359531842E-2
 2.677506850000000E9     1.042284886678609E-2    9.293167810108840E-4
 2.720006800000000E9     1.015829828539285E-4   -1.086149272879049E-2
 2.762506750000000E9    -1.595596391918450E-2   -3.521425068104981E-3
 2.805006700000000E9    -1.422380005207514E-2    1.611543267721693E-2
 2.847506650000000E9     5.974868060927751E-3    2.154163345648852E-2
 2.890006600000000E9     2.035023627540467E-2    5.592053380845825E-3
 2.932506550000000E9     1.141991496286306E-2   -1.248357180413241E-2
 2.975006500000000E9    -4.812314125698701E-3   -1.210944688574719E-2
 3.017506450000000E9    -7.829148692412202E-3    4.605269423680828E-4
 3.060006400000000E9     1.784563324474997E-3    6.025398731250320E-3
 3.102506350000000E9     9.568169005566210E-3   -4.082987571540343E-3
 3.145006300000000E9     1.977645004183650E-3   -1.426136979597827E-2
 3.187506250000000E9    -9.425965848133981E-3   -1.002910879740823E-2
 3.230006200000000E9    -9.209193831442837E-3    1.678993036756279E-3
 3.272506150000000E9     4.673452847454953E-4    6.285417620356187E-3
 3.315006100000000E9     6.610565633438497E-3   -1.305230687075001E-3
 3.357506050000000E9     2.027251524095693E-3   -8.789567968820852E-3
 3.400006000000000E9    -5.027858717712175E-3   -7.435897546578944E-3
 3.442505950000000E9    -6.010745113623575E-3    1.590847466405475E-4
 3.485005900000000E9     6.495753958021221E-4    2.233344738589041E-3
 3.527505850000000E9     2.879663402720058E-3   -1.830276845912660E-3
 3.570005800000000E9    -9.044627174969957E-5   -4.661785015154628E-3
 3.612505750000000E9    -4.739056081591839E-3   -1.611313795813303E-3
 3.655005700000000E9    -2.048952433527102E-3    4.828323817037929E-3
 3.697505650000000E9     3.749035402212062E-3    5.319797231682705E-3
 3.740005600000000E9     5.803804139632727E-3   -2.020070042586795E-4
 3.782505550000000E9     1.220411190576632E-3   -3.591643618885565E-3
 3.825005500000000E9    -2.840234040688781E-3   -9.852777647695198E-7
 3.867505450000000E9     7.914007774045637E-4    6.007281811945341E-3
 3.910005400000000E9     8.658851976168948E-3    4.287366495726071E-3
 3.952505350000000E9     9.765031510460570E-3   -3.343101051573195E-3
 3.995005300000000E9     1.140839160931378E-3   -6.388724774088403E-3
 4.037505250000000E9    -4.717676943231614E-3    2.658767167047625E-3
 4.080005200000000E9     4.541074268884113E-3    1.268460834871099E-2
 4.122505150000000E9     1.996252957947721E-2    7.525700508949160E-3
 4.165005100000000E9     2.099349025918086E-2   -1.197401102666859E-2
 4.207505050000000E9     2.112270388332266E-3   -2.162119783629812E-2
 4.250005000000000E9    -1.428801144795138E-2   -7.264190974583749E-3
 4.292504950000000E9    -7.308910155659644E-3    1.226114338086501E-2
 4.335004900000000E9     1.408094681161811E-2    1.200719725964306E-2
 4.377504850000000E9     1.924230041134675E-2   -9.071665145033245E-3
 4.420004800000000E9    -4.964229601935209E-5   -1.991147369173529E-2
 4.462504750000000E9    -1.564412680530328E-2   -3.134695925233663E-3
 4.505004700000000E9    -4.542544631502560E-3    1.533158572985183E-2
 4.547504650000000E9     1.762197846724034E-2    8.374065434549259E-3
 4.590004600000000E9     1.489545757545899E-2   -1.555228099876019E-2
 4.632504550000000E9    -1.019463253662711E-2   -1.939805396761485E-2
 4.675004500000000E9    -2.208756817048554E-2    4.477405570763938E-3
 4.717504450000000E9    -2.210169286507989E-3    2.335940659570769E-2
 4.760004400000000E9     2.017541759326169E-2    8.009925661027154E-3
 4.802504350000000E9     1.085365606913816E-2   -1.831471932358822E-2
 4.845004300000000E9    -1.845682839389470E-2   -1.404427405793598E-2
 4.887504250000000E9    -2.183361728185339E-2    1.773234315576405E-2
 4.930004200000000E9     7.706148187589318E-3    2.996084137822730E-2
 4.972504150000000E9     2.777675756369894E-2    4.230499694012742E-3
 5.015004100000000E9     8.936745738658660E-3   -2.091122608158510E-2
 5.057504050000000E9    -2.026555977763666E-2   -6.433078943205296E-3
 5.100004000000000E9    -1.032670394696911E-2    2.561961143537918E-2
 5.142503950000000E9     2.686512688201247E-2    2.311667302731771E-2
 5.185003900000000E9     3.601684660407969E-2   -1.806993932598798E-2
 5.227503850000000E9    -6.489642745389088E-3   -4.073547999865476E-2
 5.270003800000000E9    -4.016647260291337E-2   -5.666556784829958E-3
 5.312503750000000E9    -1.709818506960810E-2    3.687396218707230E-2
 5.355003700000000E9     3.011068727686396E-2    2.693432447095713E-2
 5.397503650000000E9     3.547595156437711E-2   -2.074803795843530E-2
 5.440003600000000E9    -9.337566208393523E-3   -3.917496736617547E-2
 5.482503550000000E9    -3.738979306670444E-2   -1.645785324439703E-3
 5.525003500000000E9    -9.401165526959868E-3    3.237576742478929E-2
 5.567503450000000E9     2.813290621411413E-2    1.180631653402783E-2
 5.610003400000000E9     1.575191696130624E-2   -2.968533416875576E-2
 5.652503350000000E9    -2.858669948709062E-2   -2.745798814094535E-2
 5.695003300000000E9    -3.948045325951616E-2    1.555501267568038E-2
 5.737503250000000E9    -3.292393298850557E-3    3.895885850092595E-2
 5.780003200000000E9     2.840213943303124E-2    1.257239883098123E-2
 5.822503150000000E9     1.024995536683818E-2   -2.195319571516742E-2
 5.865003100000000E9    -2.529978157450050E-2   -1.026784982476458E-2
 5.907503050000000E9    -2.179346992450600E-2    2.807295533098127E-2
 5.950003000000000E9     1.703335095439233E-2    3.446633563527838E-2
 5.992502950000000E9     3.230856844821817E-2   -2.127189059385001E-3
 6.035002900000000E9     1.267540909450212E-3   -2.540521571081526E-2
 6.077502850000000E9    -2.703080126236083E-2   -1.893438179309603E-3
 6.120002800000000E9    -1.024543004091955E-2    2.845356721151501E-2
 6.162502750000000E9     2.260357241876941E-2    1.793147697042650E-2
 6.205002700000000E9     1.925297287792365E-2   -1.691315041936927E-2
 6.247502650000000E9    -1.713177198545411E-2   -1.918085108151128E-2
 6.290002600000000E9    -2.846360118194001E-2    2.021883848395359E-2
 6.332502550000000E9     8.277794693199118E-3    4.475683599563946E-2
 6.375002500000000E9     4.175682711970429E-2    1.741429977145793E-2
 6.417502450000000E9     2.614183473888108E-2   -2.203043497866547E-2
 6.460002400000000E9    -1.699778960528805E-2   -1.774450207801561E-2
 6.502502350000000E9    -2.605294391992103E-2    2.170618762496134E-2
 6.545002300000000E9     8.805193573169331E-3    3.966431197418661E-2
 6.587502250000000E9     3.424635869846977E-2    1.376129227532993E-2
 6.630002200000000E9     2.019021858548290E-2   -1.441723524176716E-2
 6.672502150000000E9    -2.779204074711563E-3   -7.716379247488647E-3
 6.715002100000000E9     5.287253623891572E-3    1.353580298373623E-2
 6.757502050000000E9     2.781230868848440E-2    8.792765802218348E-3
 6.800002000000000E9     2.845654077159398E-2   -1.497954658531326E-2
 6.842501950000000E9     4.518173544650343E-3   -1.892623582367968E-2
 6.885001900000000E9    -6.385133194111060E-3    1.644206926626500E-3
 6.927501850000000E9     9.140817787882484E-3    1.225430121327047E-2
 6.970001800000000E9     1.975678365751360E-2   -4.632174023259472E-3
 7.012501750000000E9     7.490298487908942E-4   -2.011085590778314E-2
 7.055001700000000E9    -2.003980377682500E-2   -4.689830761366068E-3
 7.097501650000000E9    -8.202610347948364E-3    2.014569890924363E-2
 7.140001600000000E9     2.025645026030480E-2    1.523671998674664E-2
 7.182501550000000E9     2.117189658292503E-2   -1.495287252222213E-2
 7.225001500000000E9    -7.769280620246306E-3   -2.018695714204608E-2
 7.267501450000000E9    -2.120817419476935E-2    9.188299409510707E-3
 7.310001400000000E9     7.274878895555221E-3    2.855364282767546E-2
 7.352501350000000E9     3.285562910456502E-2    4.486109930217448E-3
 7.395001300000000E9     1.604922738183985E-2   -2.765883226902530E-2
 7.437501250000000E9    -2.192542645994943E-2   -1.579590598184639E-2
 7.480001200000000E9    -1.914506214057122E-2    2.761887121018140E-2
 7.522501150000000E9     2.684529455348545E-2    3.841604318587660E-2
 7.565001100000000E9     5.311889578028707E-2   -2.451341838046696E-3
 7.607501050000000E9     2.205338417902093E-2   -3.759596041533775E-2
 7.650001000000000E9    -1.596800433980653E-2   -1.767676488084667E-2
 7.692500950000000E9    -3.780569699335207E-3    2.376115602834885E-2
 7.735000900000000E9     4.093373463044273E-2    1.889784773454616E-2
 7.777500850000000E9     5.115715610224443E-2   -2.736297398023075E-2
 7.820000800000000E9     6.954717341022014E-3   -5.077156606279530E-2
 7.862500750000000E9    -2.457969569985851E-2   -1.483210522078608E-2
 7.905000700000000E9     2.836951113077632E-3    2.506517274210151E-2
 7.947500650000000E9     4.747053254529870E-2    8.319868605006397E-3
 7.990000600000000E9     4.006439620609669E-2   -3.996456974786805E-2
 8.032500550000000E9    -1.233757391295494E-2   -4.374526391147730E-2
 8.075000500000000E9    -2.713647489074778E-2    5.097868453115894E-3
 8.117500450000000E9     1.604053268012928E-2    3.334000249337698E-2
 8.160000400000000E9     5.412664115687866E-2   -3.338897367051645E-3
 8.202500350000000E9     2.550401370152065E-2   -4.838650175530149E-2
 8.245000300000000E9    -2.793324453547165E-2   -3.417444639447191E-2
 8.287500250000000E9    -2.452465096621906E-2    2.342796124520930E-2
 8.330000200000000E9     3.118665368608423E-2    3.303455743940076E-2
 8.372500150000000E9     5.130155547540170E-2   -1.868655289636094E-2
 8.415000100000000E9     1.611162657357123E-3   -5.152883612252300E-2
 8.457500050000000E9    -4.607069141941231E-2   -1.003667816992066E-2
 8.500000000000000E9    -2.267526878930688E-2    4.868959326883150E-2
