! TOUCHSTONE file generated by CST MICROWAVE STUDIO
! Date and time: Sun Mar 22 23:59:08 2026
! Project name: horn_with_nahcouplingfrfr_petite_2.cst
! Parameters = {Dielectric_Diameter=10.03; backshot=41.2351; backshot_offset=29; conn_met=7; connin=2.8; cutoff_lower=9.36851e+08; cutoff_lower_ghz=0.936851; cutoff_lower_wavelenght=0.32; f_center=1.42; half_wavelenght=140.47; horn_h=513; horn_l=515; horn_w=608; interface_height=20.8; k=0.435276; mt=1.5; outer_diameter=16; p=0.751481; pin_depth=38; pin_diameter=3; qtr_wavelenght=70.2351; total_m2=0.762597; wave_a=160; wave_b=80; wave_l=285.235; waveguide_wavelenght=280.94; wavelenght=0.211121}
! Header version: 2024
! Port assignment regex: !\s*Touchstone port\s*([0-9]+)\s*=\s*(CST MWS port|CST DES external port|CST DES block port)\s*(.+)\s* \(\"(.*)\"\)(\s*mode\s*([0-9]+))?.*
! Touchstone port assignment:
! Touchstone port 1 = CST MWS port 1 ("")
# GHz S MA R 50
1                    0.900793251     -148.312407
1.001                0.898086024     -148.542734
1.002                0.895362577     -148.770237
1.003                0.892624621     -148.994819
1.004                0.889873977     -149.216384
1.005                0.887112581     -149.434838
1.006                 0.88434248     -149.650093
1.007                0.881565833     -149.862062
1.008                 0.87878491     -150.070666
1.009                0.876002091      -150.27583
1.01                 0.873219859     -150.477485
1.011                0.870440801     -150.675572
1.012                0.867667599     -150.870037
1.013                0.864903023     -151.060839
1.014                0.862149925     -151.247944
1.015                 0.85941123     -151.431333
1.016                0.856689921     -151.610996
1.017                0.853989033     -151.786938
1.018                0.851311634     -151.959178
1.019                0.848660812      -152.12775
1.02                  0.84603966     -152.292702
1.021                0.843451257     -152.454101
1.022                0.840898648     -152.612031
1.023                0.838384827     -152.766591
1.024                0.835912714     -152.917901
1.025                0.833485134     -153.066096
1.026                0.831104797     -153.211333
1.027                0.828774272     -153.353784
1.028                0.826495968      -153.49364
1.029                0.824272112     -153.631109
1.03                 0.822104727     -153.766416
1.031                0.819995612     -153.899801
1.032                0.817946321     -154.031519
1.033                 0.81595815     -154.161839
1.034                0.814032117     -154.291039
1.035                0.812168951     -154.419412
1.036                0.810369077     -154.547254
1.037                0.808632613     -154.674871
1.038                 0.80695936     -154.802573
1.039                0.805348799     -154.930671
1.04                 0.803800091     -155.059477
1.041                0.802312082     -155.189302
1.042                0.800883306     -155.320452
1.043                0.799511993     -155.453225
1.044                0.798196083     -155.587914
1.045                0.796933239     -155.724799
1.046                0.795720861     -155.864149
1.047                0.794556108      -156.00622
1.048                0.793435912     -156.151251
1.049                0.792357009     -156.299465
1.05                 0.791315954     -156.451069
1.051                0.790309146     -156.606247
1.052                0.789332856     -156.765169
1.053                0.788383247      -156.92798
1.054                0.787456402     -157.094808
1.055                0.786548346     -157.265759
1.056                0.785655069     -157.440918
1.057                0.784772551     -157.620351
1.058                0.783896779     -157.804104
1.059                0.783023772     -157.992202
1.06                 0.782149596     -158.184653
1.061                0.781270383     -158.381445
1.062                0.780382347     -158.582551
1.063                0.779481797     -158.787925
1.064                0.778565147     -158.997506
1.065                0.777628933      -159.21122
1.066                0.776669815     -159.428978
1.067                 0.77568459     -159.650677
1.068                0.774670195     -159.876204
1.069                0.773623714     -160.105434
1.07                 0.772542378     -160.338233
1.071                0.771423574     -160.574457
1.072                0.770264838     -160.813952
1.073                0.769063863     -161.056559
1.074                0.767818495      -161.30211
1.075                0.766526732     -161.550431
1.076                0.765186726     -161.801344
1.077                0.763796776     -162.054662
1.078                0.762355331     -162.310196
1.079                0.760860985     -162.567751
1.08                 0.759312477     -162.827128
1.081                0.757708685     -163.088124
1.082                0.756048628     -163.350533
1.083                0.754331463     -163.614143
1.084                0.752556481     -163.878742
1.085                0.750723109     -164.144111
1.086                0.748830905      -164.41003
1.087                0.746879562     -164.676274
1.088                0.744868905     -164.942617
1.089                0.742798893     -165.208827
1.09                 0.740669615      -165.47467
1.091                0.738481301     -165.739909
1.092                0.736234312     -166.004301
1.093                0.733929152     -166.267604
1.094                0.731566466     -166.529569
1.095                0.729147044     -166.789945
1.096                0.726671824     -167.048478
1.097                  0.7241419      -167.30491
1.098                0.721558519     -167.558981
1.099                0.718923093     -167.810429
1.1                  0.716237199     -168.058989
1.101                0.713502584     -168.304394
1.102                0.710721175     -168.546376
1.103                0.707895075     -168.784667
1.104                0.705026573     -169.018999
1.105                0.702118149     -169.249104
1.106                0.699172473     -169.474717
1.107                0.696192407     -169.695576
1.108                0.693181013     -169.911423
1.109                0.690141547     -170.122007
1.11                 0.687077461     -170.327083
1.111                  0.6839924     -170.526415
1.112                0.680890197     -170.719778
1.113                0.677774871      -170.90696
1.114                0.674650614     -171.087764
1.115                0.671521785     -171.262009
1.116                0.668392895     -171.429533
1.117                0.665268594     -171.590195
1.118                0.662153654      -171.74388
1.119                0.659052947     -171.890494
1.12                 0.655971425     -172.029975
1.121                0.652914095      -172.16229
1.122                0.649885992     -172.287437
1.123                0.646892148     -172.405449
1.124                0.643937563     -172.516394
1.125                0.641027172     -172.620376
1.126                0.638165809     -172.717539
1.127                0.635358174     -172.808063
1.128                0.632608796      -172.89217
1.129                0.629921999     -172.970116
1.13                 0.627301864       -173.0422
1.131                  0.6247522     -173.108756
1.132                0.622276505     -173.170154
1.133                0.619877942     -173.226797
1.134                0.617559308      -173.27912
1.135                0.615323011     -173.327587
1.136                 0.61317105     -173.372686
1.137                0.611104997     -173.414928
1.138                0.609125985     -173.454841
1.139                0.607234702     -173.492965
1.14                 0.605431388     -173.529852
1.141                0.603715835     -173.566058
1.142                0.602087396     -173.602138
1.143                0.600544995     -173.638643
1.144                0.599087141     -173.676118
1.145                0.597711951     -173.715093
1.146                0.596417172     -173.756083
1.147                0.595200203     -173.799582
1.148                0.594058132     -173.846064
1.149                 0.59298776     -173.895973
1.15                 0.591985635     -173.949727
1.151                0.591048088     -174.007715
1.152                0.590171265     -174.070293
1.153                0.589351161     -174.137784
1.154                0.588583656     -174.210478
1.155                0.587864543     -174.288633
1.156                0.587189563      -174.37247
1.157                0.586554435     -174.462181
1.158                 0.58595488     -174.557923
1.159                0.585386651     -174.659824
1.16                 0.584845552      -174.76798
1.161                0.584327465     -174.882459
1.162                0.583828363     -175.003305
1.163                 0.58334433     -175.130533
1.164                0.582871571     -175.264136
1.165                 0.58240643     -175.404088
1.166                0.581945391     -175.550339
1.167                0.581485094     -175.702826
1.168                0.581022334     -175.861467
1.169                0.580554067     -176.026166
1.17                 0.580077412     -176.196817
1.171                0.579589651     -176.373301
1.172                0.579088228     -176.555491
1.173                0.578570749     -176.743251
1.174                0.578034975     -176.936439
1.175                0.577478822      -177.13491
1.176                0.576900355     -177.338512
1.177                0.576297781     -177.547092
1.178                0.575669448     -177.760493
1.179                0.575013833     -177.978558
1.18                 0.574329542      -178.20113
1.181                  0.5736153     -178.428051
1.182                0.572869943     -178.659165
1.183                0.572092418     -178.894314
1.184                0.571281769     -179.133346
1.185                0.570437136     -179.376108
1.186                0.569557749      -179.62245
1.187                0.568642917     -179.872223
1.188                0.567692029      179.874718
1.189                0.566704544      179.618515
1.19                 0.565679987      179.359308
1.191                0.564617945      179.097236
1.192                0.563518063      178.832434
1.193                0.562380037      178.565032
1.194                0.561203614      178.295163
1.195                0.559988584      178.022952
1.196                0.558734781      177.748526
1.197                0.557442076      177.472007
1.198                0.556110378      177.193516
1.199                0.554739629      176.913173
1.2                  0.553329803      176.631096
1.201                0.551880904        176.3474
1.202                0.550392965      176.062202
1.203                0.548866045      175.775614
1.204                0.547300228       175.48775
1.205                0.545695627      175.198722
1.206                0.544052376      174.908643
1.207                0.542370635      174.617624
1.208                0.540650589      174.325777
1.209                0.538892444      174.033213
1.21                 0.537096434      173.740045
1.211                0.535262816      173.446385
1.212                0.533391874      173.152345
1.213                0.531483915       172.85804
1.214                0.529539275      172.563584
1.215                0.527558319      172.269093
1.216                0.525541439      171.974682
1.217                0.523489058       171.68047
1.218                0.521401629      171.386575
1.219                0.519279639      171.093117
1.22                 0.517123608      170.800218
1.221                0.514934092         170.508
1.222                 0.51271168      170.216586
1.223                0.510457003      169.926101
1.224                0.508170728      169.636671
1.225                0.505853563      169.348422
1.226                0.503506257      169.061483
1.227                0.501129599      168.775982
1.228                0.498724423      168.492046
1.229                0.496291607      168.209806
1.23                 0.493832071       167.92939
1.231                0.491346779      167.650926
1.232                0.488836743      167.374543
1.233                0.486303014      167.100368
1.234                0.483746693      166.828527
1.235                0.481168919      166.559144
1.236                0.478570877      166.292341
1.237                0.475953792      166.028239
1.238                 0.47331893      165.766953
1.239                0.470667595      165.508597
1.24                 0.468001125       165.25328
1.241                0.465320896      165.001108
1.242                0.462628311       164.75218
1.243                0.459924805      164.506591
1.244                0.457211834       164.26443
1.245                 0.45449088      164.025777
1.246                0.451763438      163.790709
1.247                 0.44903102      163.559292
1.248                0.446295146      163.331586
1.249                0.443557339      163.107641
1.25                 0.440819125        162.8875
1.251                0.438082023      162.671194
1.252                0.435347543      162.458746
1.253                0.432617178      162.250168
1.254                0.429892404      162.045462
1.255                 0.42717467      161.844619
1.256                0.424465393      161.647618
1.257                0.421765957      161.454428
1.258                0.419077705      161.265007
1.259                0.416401932        161.0793
1.26                 0.413739886      160.897242
1.261                0.411092759      160.718756
1.262                0.408461684      160.543753
1.263                0.405847732      160.372134
1.264                0.403251905       160.20379
1.265                0.400675139      160.038597
1.266                0.398118295      159.876427
1.267                0.395582157      159.717137
1.268                0.393067435      159.560576
1.269                0.390574756      159.406586
1.27                 0.388104667      159.254997
1.271                0.385657635      159.105634
1.272                0.383234041      158.958313
1.273                0.380834185      158.812843
1.274                0.378458283      158.669028
1.275                 0.37610647      158.526667
1.276                0.373778797      158.385552
1.277                0.371475237      158.245472
1.278                0.369195682      158.106214
1.279                0.366939948      157.967559
1.28                 0.364707775      157.829289
1.281                0.362498832      157.691182
1.282                0.360312715      157.553016
1.283                0.358148953       157.41457
1.284                 0.35600701      157.275621
1.285                0.353886289      157.135949
1.286                0.351786133      156.995332
1.287                0.349705828      156.853554
1.288                0.347644609      156.710398
1.289                 0.34560166      156.565651
1.29                 0.343576119      156.419102
1.291                0.341567081      156.270545
1.292                0.339573599      156.119777
1.293                 0.33759469      155.966598
1.294                0.335629337      155.810812
1.295                0.333676488      155.652228
1.296                0.331735066       155.49066
1.297                0.329803966      155.325926
1.298                0.327882058      155.157848
1.299                0.325968191      154.986253
1.3                  0.324061195      154.810974
1.301                0.322159882      154.631847
1.302                0.320263048      154.448713
1.303                0.318369476      154.261418
1.304                0.316477935      154.069815
1.305                0.314587185      153.873757
1.306                0.312695974      153.673104
1.307                0.310803044      153.467722
1.308                0.308907126      153.257479
1.309                0.307006948      153.042249
1.31                  0.30510123      152.821907
1.311                0.303188686      152.596337
1.312                0.301268028      152.365424
1.313                 0.29933796      152.129056
1.314                0.297397186      151.887127
1.315                0.295444403      151.639535
1.316                0.293478306      151.386181
1.317                0.291497586      151.126969
1.318                0.289500933      150.861808
1.319                0.287487031      150.590611
1.32                 0.285454563      150.313293
1.321                0.283402208      150.029775
1.322                0.281328643      149.739981
1.323                0.279232541       149.44384
1.324                0.277112573      149.141282
1.325                0.274967407      148.832246
1.326                0.272795711      148.516673
1.327                0.270596147       148.19451
1.328                0.268367378      147.865707
1.329                0.266108065      147.530223
1.33                 0.263816868       147.18802
1.331                0.261492447      146.839069
1.332                0.259133462      146.483345
1.333                0.256738576      146.120834
1.334                0.254306454      145.751526
1.335                0.251835764      145.375425
1.336                0.249325181       144.99254
1.337                0.246773387      144.602895
1.338                0.244179073      144.206521
1.339                0.241540941      143.803465
1.34                 0.238857706      143.393788
1.341                0.236128102      142.977565
1.342                 0.23335088      142.554889
1.343                0.230524816      142.125869
1.344                0.227648709      141.690639
1.345                0.224721393      141.249349
1.346                0.221741733       140.80218
1.347                0.218708636      140.349336
1.348                0.215621052      139.891051
1.349                0.212477982      139.427593
1.35                 0.209278482      138.959266
1.351                0.206021673      138.486412
1.352                 0.20270674      138.009419
1.353                 0.19933295      137.528723
1.354                0.195899648      137.044815
1.355                0.192406276      136.558242
1.356                0.188852371      136.069622
1.357                0.185237584      135.579643
1.358                0.181561681      135.089079
1.359                0.177824557      134.598793
1.36                 0.174026247      134.109754
1.361                0.170166933      133.623043
1.362                 0.16624696      133.139877
1.363                0.162266844      132.661616
1.364                0.158227287      132.189791
1.365                0.154129188      131.726122
1.366                 0.14997366      131.272549
1.367                0.145762043      130.831262
1.368                 0.14149592      130.404741
1.369                0.137177138      129.995801
1.37                 0.132807823      129.607649
1.371                0.128390407      129.243948
1.372                 0.12392765      128.908902
1.373                0.119422674      128.607354
1.374                0.114878995      128.344906
1.375                0.110300569      128.128077
1.376                0.105691845      127.964486
1.377                 0.10105783      127.863094
1.378               0.0964041757      127.834501
1.379                 0.09173729       127.89133
1.38                0.0870644765      128.048711
1.381               0.0823941256      128.324906
1.382               0.0777359653      128.742118
1.383               0.0731014007      129.327523
1.384               0.0685039736      130.114615
1.385               0.0639599917      131.144908
1.386               0.0594893914      132.470086
1.387               0.0551169236      134.154584
1.388               0.0508737696      136.278487
