#  HZ   S   RI   R     50.00 
! Rohde & Schwarz Vector Network Analyzer 
! Rohde-Schwarz,ZNB8-4Port,REDACTED,3.12
! Created: UTC 3/18/2026, 7:24:49 PM
! freq[Hz]                re:S11                  im:S11
 4.200000010000000E8    -4.944794565229297E-1   -7.966519959362592E-1
 4.300000010000000E8    -7.343328328537051E-1   -5.804567129602395E-1
 4.400000010000000E8    -8.856805701192195E-1   -2.971268452488621E-1
 4.500000010000000E8    -9.325440885425440E-1    1.952847908195592E-2
 4.600000010000000E8    -8.702319271954863E-1    3.324069754503022E-1
 4.700000010000000E8    -7.070349117394258E-1    6.045259541171992E-1
 4.800000010000000E8    -4.629537428000614E-1    8.064474724504463E-1
 4.900000010000000E8    -1.658261340466782E-1    9.148743430626471E-1
 5.000000010000000E8     1.503129878536329E-1    9.176705717454023E-1
 5.100000010000000E8     4.490404352910911E-1    8.145997179965122E-1
 5.200000010000000E8     6.967039807219411E-1    6.179404567430291E-1
 5.300000010000000E8     8.641666615697954E-1    3.490443496978454E-1
 5.400000010000000E8     9.319003317666169E-1    3.912385051800189E-2
 5.500000010000000E8     8.915619789254114E-1   -2.758596115096169E-1
 5.600000010000000E8     7.473234279543816E-1   -5.592025454033652E-1
 5.700000010000000E8     5.159250321090473E-1   -7.775724814641181E-1
 5.800000010000000E8     2.242112158778777E-1   -9.053738822443314E-1
 5.900000010000000E8    -9.311047266594581E-2   -9.270506147413654E-1
 6.000000010000000E8    -3.992213774913806E-1   -8.403701981590873E-1
 6.100000010000000E8    -6.579218770268173E-1   -6.556741392176585E-1
 6.200000010000000E8    -8.387940464772585E-1   -3.952759714801310E-1
 6.300000010000000E8    -9.215586341748697E-1   -8.963608906788546E-2
 6.400000010000000E8    -8.966922798404485E-1    2.253269190559102E-1
 6.500000010000000E8    -7.680182252480393E-1    5.132801967401185E-1
 6.600000010000000E8    -5.505964328758483E-1    7.411808815366556E-1
 6.700000010000000E8    -2.695758463836748E-1    8.831791083808982E-1
 6.800000010000000E8     4.234917713995513E-2    9.230738545787565E-1
 6.900000010000000E8     3.496237426585018E-1    8.562922941566734E-1
 7.000000010000000E8     6.172908826671449E-1    6.904701067173813E-1
 7.100000010000000E8     8.141332875887608E-1    4.444956861468868E-1
 7.200000010000000E8     9.171101542850889E-1    1.461064757541269E-1
 7.300000010000000E8     9.141920122543883E-1   -1.694807090634349E-1
 7.400000010000000E8     8.049582745827143E-1   -4.664681292048953E-1
 7.500000010000000E8     6.020595725873689E-1   -7.093371878657716E-1
 7.600000010000000E8     3.291207518586315E-1   -8.698111260416447E-1
 7.700000010000000E8     1.806481496871829E-2   -9.289285078874844E-1
 7.800000010000000E8    -2.944186479727356E-1   -8.798059162992627E-1
 7.900000010000000E8    -5.720833372263959E-1   -7.282601023388313E-1
 8.000000010000000E8    -7.826204743720502E-1   -4.922861129798741E-1
 8.100000010000000E8    -9.012108857355298E-1   -1.994315633602965E-1
 8.200000010000000E8    -9.144275771723417E-1    1.162598899968741E-1
 8.300000010000000E8    -8.205237925692972E-1    4.181891038732946E-1
 8.400000010000000E8    -6.299030063404539E-1    6.710639896651239E-1
 8.500000010000000E8    -3.649101514067424E-1    8.449728358718720E-1
 8.600000010000000E8    -5.606727276335625E-2    9.190871651853991E-1
 8.700000010000000E8     2.608140673154342E-1    8.840748625441974E-1
 8.800000010000000E8     5.474374350145670E-1    7.428537341257859E-1
 8.900000010000000E8     7.694649291520957E-1    5.110917304451736E-1
 9.000000010000000E8     8.989930518364236E-1    2.163531188441045E-1
 9.100000010000000E8     9.186041221076491E-1   -1.060056388814038E-1
 9.200000010000000E8     8.252054926928378E-1   -4.161627168785387E-1
 9.300000010000000E8     6.294037650310373E-1   -6.746565330768514E-1
 9.400000010000000E8     3.553466086343157E-1   -8.492484335383573E-1
 9.500000010000000E8     3.730539126781183E-2   -9.163058211655956E-1
 9.600000010000000E8    -2.837112210185748E-1   -8.665082696303892E-1
 9.700000010000000E8    -5.658794753000326E-1   -7.066052749375574E-1
 9.800000010000000E8    -7.704115542563944E-1   -4.569341175613216E-1
 9.900000010000000E8    -8.693391878402369E-1   -1.536541272460595E-1
 1.000000001000000E9    -8.542328388765195E-1    1.591653216019591E-1
 1.010000001000000E9    -7.280025373147544E-1    4.358269188251462E-1
 1.020000001000000E9    -5.261719720375670E-1    6.490072870199690E-1
 1.030000001000000E9    -2.680248260593661E-1    7.749235186097214E-1
 1.040000001000000E9     1.208956816616141E-2    8.127496156978912E-1
 1.050000001000000E9     2.874537585972980E-1    7.540424991487328E-1
 1.060000001000000E9     5.287198705153238E-1    6.017878404887987E-1
 1.070000001000000E9     7.030060818114380E-1    3.743500518660307E-1
 1.080000001000000E9     7.808245774899892E-1    9.605283079297902E-2
 1.090000001000000E9     7.561843550569979E-1   -1.849085943192726E-1
 1.100000001000000E9     6.241815112785997E-1   -4.394703371368547E-1
 1.110000001000000E9     4.189645529617659E-1   -6.150100109178825E-1
 1.120000001000000E9     1.656552295334830E-1   -7.068227874723328E-1
 1.130000001000000E9    -8.831724861395397E-2   -6.966359504702122E-1
 1.140000001000000E9    -3.162235444160830E-1   -6.066183393896089E-1
 1.150000001000000E9    -4.964814261327560E-1   -4.483594578648391E-1
 1.160000001000000E9    -6.107142908050356E-1   -2.443157470058248E-1
 1.170000001000000E9    -6.467791593577856E-1   -9.296271727199563E-3
 1.180000001000000E9    -5.963610605570335E-1    2.230866992783792E-1
 1.190000001000000E9    -4.660117535542142E-1    4.181598246590045E-1
 1.200000001000000E9    -2.643327096057463E-1    5.476967346807667E-1
 1.210000001000000E9    -3.711351353739248E-2    5.848305023285794E-1
 1.220000001000000E9     1.856118320873526E-1    5.314841788205807E-1
 1.230000001000000E9     3.507951624056172E-1    3.954604767690836E-1
 1.240000001000000E9     4.452665628686537E-1    2.185137950939354E-1
 1.250000001000000E9     4.570528776109963E-1    3.124784775233131E-2
 1.260000001000000E9     3.991029014001487E-1   -1.298176591139361E-1
 1.270000001000000E9     3.017958153096023E-1   -2.485341131581678E-1
 1.280000001000000E9     1.803779695708661E-1   -3.130463671829843E-1
 1.290000001000000E9     4.766776419580327E-2   -3.332173904278996E-1
 1.300000001000000E9    -7.011750329627942E-2   -2.996675626795995E-1
 1.310000001000000E9    -1.672854231475150E-1   -2.425307972075628E-1
 1.320000001000000E9    -2.278637536358815E-1   -1.376964572494170E-1
 1.330000001000000E9    -2.507470933224213E-1   -4.117583532424347E-2
 1.340000001000000E9    -2.179537172612284E-1    6.600379733435598E-2
 1.350000001000000E9    -1.594070058355121E-1    1.294663853852881E-1
 1.360000001000000E9    -7.107168101556639E-2    1.611380827245282E-1
 1.370000001000000E9     3.567894603712494E-3    1.503804868465427E-1
 1.380000001000000E9     5.580567087240265E-2    1.003696557056815E-1
 1.390000001000000E9     7.540626875599432E-2    4.908419333153381E-2
 1.400000001000000E9     5.551752150518449E-2    2.945810967960544E-3
 1.410000001000000E9     2.301396025178659E-2   -1.841490935076465E-2
 1.420000001000000E9    -4.799898889405581E-3   -6.514360163236758E-3
 1.430000001000000E9    -1.926072116460242E-2    1.074493555118012E-2
 1.440000001000000E9    -2.458499954657999E-3    3.150373179508111E-2
 1.450000001000000E9     5.509009070925674E-3    3.316839910603946E-2
 1.460000001000000E9     2.343418407657078E-2    1.781808906336800E-2
 1.470000001000000E9     1.376575938038910E-2    1.521167967611663E-2
 1.480000001000000E9     2.569388087357847E-3    1.526789798395728E-2
 1.490000001000000E9    -3.012808071346681E-4    3.259083062175604E-2
 1.500000001000000E9     1.724821470671649E-2    5.302828023935777E-2
 1.510000001000000E9     5.627880576082164E-2    5.712036174970592E-2
 1.520000001000000E9     8.373822364506185E-2    3.621268781542926E-2
 1.530000001000000E9     1.180418236894640E-1   -1.313194483424446E-2
 1.540000001000000E9     1.049999771359122E-1   -6.273946695816088E-2
 1.550000001000000E9     7.737928197789815E-2   -1.066106971812924E-1
 1.560000001000000E9     2.101603405063089E-2   -1.423107563115052E-1
 1.570000001000000E9    -3.229812330158475E-2   -1.298431178854350E-1
 1.580000001000000E9    -8.149539647050856E-2   -1.194329814096228E-1
 1.590000001000000E9    -1.207788087537610E-1   -7.704429217284044E-2
 1.600000001000000E9    -1.369866666357120E-1   -4.329207960558654E-2
 1.610000001000000E9    -1.560224734183591E-1    6.845815431051458E-3
 1.620000001000000E9    -1.550819203114432E-1    5.375695275981092E-2
 1.630000001000000E9    -1.441662824191929E-1    1.110148856678209E-1
 1.640000001000000E9    -1.080567783268826E-1    1.671404088557442E-1
 1.650000001000000E9    -5.213135639667037E-2    2.135529077192612E-1
 1.660000001000000E9     3.664662678967651E-2    2.361093283568012E-1
 1.670000001000000E9     1.235651659187550E-1    2.205104911533285E-1
 1.680000001000000E9     2.147371360005677E-1    1.670582748169208E-1
 1.690000001000000E9     2.713916715973672E-1    6.916165477149584E-2
 1.700000001000000E9     2.849963739476716E-1   -3.482155789426262E-2
 1.710000001000000E9     2.543669597858186E-1   -1.526999018191393E-1
 1.720000001000000E9     1.701115834487608E-1   -2.366636831973558E-1
 1.730000001000000E9     7.467602231559191E-2   -2.851861441105938E-1
 1.740000001000000E9    -4.711531415883662E-2   -2.909333078700697E-1
 1.750000001000000E9    -1.459025971653687E-1   -2.450096430266794E-1
 1.760000001000000E9    -2.301698128001141E-1   -1.774519209876474E-1
 1.770000001000000E9    -2.754848156456771E-1   -7.904747095666491E-2
 1.780000001000000E9    -2.842291228812812E-1    2.124383720192288E-2
 1.790000001000000E9    -2.658823678365970E-1    1.211001236197932E-1
 1.800000001000000E9    -2.068497989255607E-1    2.100031754581812E-1
 1.810000001000000E9    -1.291327492634231E-1    2.677485168895703E-1
 1.820000001000000E9    -2.176353724827085E-2    3.111671824080136E-1
 1.830000001000000E9     8.549506747442583E-2    2.979857749691175E-1
 1.840000001000000E9     1.939593932328743E-1    2.607130150616397E-1
 1.850000001000000E9     2.778133034996813E-1    1.700474065934919E-1
 1.860000001000000E9     3.247204654628181E-1    5.920825007144467E-2
 1.870000001000000E9     3.245890525002101E-1   -6.556461374769171E-2
 1.880000001000000E9     2.749527742051214E-1   -1.824600928793321E-1
 1.890000001000000E9     1.823916507279827E-1   -2.680857462477161E-1
 1.900000001000000E9     7.612694865500483E-2   -3.114064866145783E-1
 1.910000001000000E9    -4.631053536644008E-2   -3.099992910087579E-1
 1.920000001000000E9    -1.466546478862842E-1   -2.697930154305623E-1
 1.930000001000000E9    -2.295496914592815E-1   -1.996467156221504E-1
 1.940000001000000E9    -2.819936155475369E-1   -1.122865938165714E-1
 1.950000001000000E9    -3.093143678927079E-1   -7.457761480993601E-3
 1.960000001000000E9    -2.941758952231447E-1    9.458351722462829E-2
 1.970000001000000E9    -2.582050550099509E-1    1.985888125874230E-1
 1.980000001000000E9    -1.737083336933650E-1    2.841564639187669E-1
 1.990000001000000E9    -6.980801021273163E-2    3.364837662022185E-1
 2.000000001000000E9     5.786180085953110E-2    3.563463324603877E-1
 2.010000001000000E9     1.932170673264174E-1    3.160695911934183E-1
 2.020000001000000E9     2.978173676857122E-1    2.340734399316844E-1
 2.030000001000000E9     3.815526627448365E-1    1.112311486228820E-1
 2.040000001000000E9     3.996874171595137E-1   -4.205902584227260E-2
 2.050000001000000E9     3.678741233382196E-1   -1.875684323859162E-1
 2.060000001000000E9     2.777866156050787E-1   -3.201054512311840E-1
 2.070000001000000E9     1.410822271202385E-1   -4.060773841911359E-1
 2.080000001000000E9    -1.455391156951576E-2   -4.356849574126431E-1
 2.090000001000000E9    -1.770876407513071E-1   -4.134488072234693E-1
 2.100000001000000E9    -3.204110741845529E-1   -3.231076671965305E-1
 2.110000001000000E9    -4.267400846040622E-1   -2.005633558630595E-1
 2.120000001000000E9    -4.918304460733449E-1   -1.575162416226786E-2
 2.130000001000000E9    -4.543561963694951E-1    1.296165404275630E-1
 2.140000001000000E9    -3.920586194278819E-1    3.145409214738373E-1
 2.150000001000000E9    -2.392018229168863E-1    4.310851115576868E-1
 2.160000001000000E9    -8.188645669077325E-2    4.785943686535833E-1
 2.170000001000000E9     8.076926349355483E-2    4.933651921508344E-1
 2.180000001000000E9     2.563276625745277E-1    4.451412143986336E-1
 2.190000001000000E9     4.104797406709735E-1    3.337271904906227E-1
 2.200000001000000E9     5.182894935986008E-1    1.578853990094038E-1
 2.210000001000000E9     5.446899390816009E-1   -4.857658921647710E-2
 2.220000001000000E9     4.894076011906077E-1   -2.500721803434615E-1
 2.230000001000000E9     3.530704120685166E-1   -4.165146794596221E-1
 2.240000001000000E9     1.773475892511666E-1   -4.970750765134218E-1
 2.250000001000000E9    -4.535321174464597E-3   -5.272650453137503E-1
 2.260000001000000E9    -1.779676333996491E-1   -4.929291276353343E-1
 2.270000001000000E9    -3.370151201001923E-1   -4.129550140775879E-1
 2.280000001000000E9    -4.616799759860468E-1   -2.778920880217342E-1
 2.290000001000000E9    -5.358666104883135E-1   -1.094919333207801E-1
 2.300000001000000E9    -5.517222925264414E-1    8.198950657662821E-2
 2.310000001000000E9    -4.985273908376788E-1    2.608071369713493E-1
 2.320000001000000E9    -3.870873896610091E-1    4.233804897690622E-1
 2.330000001000000E9    -2.235077984628393E-1    5.289738119494014E-1
 2.340000001000000E9    -3.261423544590308E-2    5.841274011966137E-1
 2.350000001000000E9     1.658795523782866E-1    5.606007090447487E-1
 2.360000001000000E9     3.501366491858018E-1    4.777664713136112E-1
 2.370000001000000E9     4.943851327519974E-1    3.274285846596504E-1
 2.380000001000000E9     5.800279407444860E-1    1.388919518315320E-1
 2.390000001000000E9     5.932724602861575E-1   -7.296296694555757E-2
 2.400000001000000E9     5.286521711106373E-1   -2.726813070551705E-1
 2.410000001000000E9     4.029624179279563E-1   -4.406519912978099E-1
 2.420000001000000E9     2.245924112144525E-1   -5.498149640527145E-1
