#  HZ   S   RI   R     50.00 
! Rohde & Schwarz Vector Network Analyzer 
! Rohde-Schwarz,ZNB8-4Port,REDACTED,3.12
! Created: UTC 3/17/2026, 11:53:54 PM
! freq[Hz]                re:S11                  im:S11
 1.000000000000000E4     1.042392982212287      -1.956185701665370E-2
 1.000995000000000E7     9.326679872484568E-1   -3.592456390014703E-1
 2.000990000000000E7     7.390432841967883E-1   -6.715416654485794E-1
 3.000985000000000E7     4.494262790648409E-1   -8.894235205799899E-1
 4.000980000000000E7     1.000633157390431E-1   -9.885627149997913E-1
 5.000975000000000E7    -2.597385722490937E-1   -9.557978558612010E-1
 6.000970000000000E7    -5.822186178984285E-1   -7.970351399493479E-1
 7.000965000000000E7    -8.249695631993413E-1   -5.343512314295369E-1
 8.000960000000000E7    -9.568744573392750E-1   -2.048896937451534E-1
 9.000955000000000E7    -9.631716985448419E-1    1.477405839801233E-1
 1.000095000000000E8    -8.451070269809219E-1    4.781329409014615E-1
 1.100094500000000E8    -6.187327129112001E-1    7.445809594346458E-1
 1.200094000000000E8    -3.140180752937030E-1    9.134240356963201E-1
 1.300093500000000E8     3.011559602420546E-2    9.637031418597330E-1
 1.400093000000000E8     3.695741031797208E-1    8.893199875897847E-1
 1.500092500000000E8     6.608683863130287E-1    6.999788275261311E-1
 1.600092000000000E8     8.667428527382669E-1    4.198645574628082E-1
 1.700091500000000E8     9.595441179831601E-1    8.486726334982544E-2
 1.800091000000000E8     9.270803168337495E-1   -2.611507051772883E-1
 1.900090500000000E8     7.741701313114222E-1   -5.725590361411954E-1
 2.000090000000000E8     5.209905877610020E-1   -8.084614224061227E-1
 2.100089500000000E8     2.017373367156668E-1   -9.388157665676337E-1
 2.200089000000000E8    -1.414335542810128E-1   -9.478228863093296E-1
 2.300088500000000E8    -4.638634963352324E-1   -8.358614900862407E-1
 2.400088000000000E8    -7.248899611637040E-1   -6.189549680574601E-1
 2.500087500000000E8    -8.929078237531405E-1   -3.259766278785704E-1
 2.600087000000000E8    -9.482214905134040E-1    5.818764612389621E-3
 2.700086500000000E8    -8.849798756334013E-1    3.349952252107566E-1
 2.800086000000000E8    -7.117319105909046E-1    6.206620713994198E-1
 2.900085500000000E8    -4.504951386085237E-1    8.280989461634638E-1
 3.000085000000000E8    -1.340829216509525E-1    9.321407340624568E-1
 3.100084500000000E8     1.989219131236138E-1    9.200692941939581E-1
 3.200084000000000E8     5.071210616490572E-1    7.931058207442001E-1
 3.300083500000000E8     7.522057427192772E-1    5.662203589802978E-1
 3.400083000000000E8     9.028082343998730E-1    2.677588807659260E-1
 3.500082500000000E8     9.398570445553854E-1   -6.481913125419349E-2
 3.600082000000000E8     8.576714743230229E-1   -3.895467009768506E-1
 3.700081500000000E8     6.669913053440208E-1   -6.648084332417568E-1
 3.800081000000000E8     3.921565885709957E-1   -8.554623363091282E-1
 3.900080500000000E8     6.835708404108230E-2   -9.374536073560321E-1
 4.000080000000000E8    -2.624493768872529E-1   -9.006832782312961E-1
 4.100079500000000E8    -5.586410354190483E-1   -7.515001797099350E-1
 4.200079000000000E8    -7.833353157516526E-1   -5.095207901609595E-1
 4.300078500000000E8    -9.094844973341153E-1   -2.058177870159874E-1
 4.400078000000000E8    -9.226684480274253E-1    1.211888675623052E-1
 4.500077500000000E8    -8.228711058094768E-1    4.319739774128337E-1
 4.600077000000000E8    -6.225504127596926E-1    6.887438963505200E-1
 4.700076500000000E8    -3.470544201844504E-1    8.602281410588855E-1
 4.800076000000000E8    -2.956680282657144E-2    9.273047843379695E-1
 4.900075500000000E8     2.916554539973866E-1    8.810553236891906E-1
 5.000075000000000E8     5.776822398922314E-1    7.270567724196872E-1
 5.100074500000000E8     7.932245730163139E-1    4.837233250081781E-1
 5.200074000000000E8     9.123762996082839E-1    1.807888790557910E-1
 5.300073500000000E8     9.192213386704006E-1   -1.452825799236196E-1
 5.400073000000000E8     8.126492652729593E-1   -4.538667650462851E-1
 5.500072500000000E8     6.057870717961189E-1   -7.065391978544091E-1
 5.600072000000000E8     3.239156455764751E-1   -8.717073300449273E-1
 5.700071500000000E8     2.454021456503217E-3   -9.288179086211298E-1
 5.800071000000000E8    -3.186226894204029E-1   -8.709516094456728E-1
 5.900070500000000E8    -5.989338661533481E-1   -7.056564382571964E-1
 6.000070000000000E8    -8.044505115730517E-1   -4.538364210650386E-1
 6.100069500000000E8    -9.099501028821756E-1   -1.469393887259021E-1
 6.200069000000000E8    -9.030922603493632E-1    1.766699505314171E-1
 6.300068500000000E8    -7.851640514168974E-1    4.776147445453172E-1
 6.400068000000000E8    -5.709174255045465E-1    7.192134876630144E-1
 6.500067500000000E8    -2.867034449253397E-1    8.722779602596524E-1
 6.600067000000000E8     3.269575748924039E-2    9.178224114363582E-1
 6.700066500000000E8     3.485656634372974E-1    8.503575019370530E-1
 6.800066000000000E8     6.219603781472854E-1    6.780206517457376E-1
 6.900065500000000E8     8.190932339387025E-1    4.213492633323082E-1
 7.000065000000000E8     9.152926940194837E-1    1.114789002093100E-1
 7.100064500000000E8     8.979192301876743E-1   -2.130170378554928E-1
 7.200064000000000E8     7.681601140888742E-1   -5.115001439641492E-1
 7.300063500000000E8     5.425590234321511E-1   -7.461576293310203E-1
 7.400063000000000E8     2.488486176396738E-1   -8.873761743536438E-1
 7.500062500000000E8    -7.546379884920350E-2   -9.167915429998571E-1
 7.600062000000000E8    -3.895704353707811E-1   -8.312614465383664E-1
 7.700061500000000E8    -6.536725444199754E-1   -6.414369670108135E-1
 7.800061000000000E8    -8.345666182592510E-1   -3.717245375530474E-1
 7.900060500000000E8    -9.097276414701753E-1   -5.580881470557891E-2
 8.000060000000000E8    -8.699687035406264E-1    2.666059849003655E-1
 8.100059500000000E8    -7.196632360167152E-1    5.546210978889226E-1
 8.200059000000000E8    -4.777867016202287E-1    7.720192601712020E-1
 8.300058500000000E8    -1.742260147091866E-1    8.908264776214857E-1
 8.400058000000000E8     1.527843952775605E-1    8.948930143886815E-1
 8.500057500000000E8     4.608270320763404E-1    7.827889000641671E-1
 8.600057000000000E8     7.099487054171687E-1    5.678648967894167E-1
 8.700056500000000E8     8.666955357881839E-1    2.767019387401569E-1
 8.800056000000000E8     9.085471809730002E-1   -5.228429984329971E-2
 8.900055500000000E8     8.285849938689301E-1   -3.755492795464908E-1
 9.000055000000000E8     6.364797835947847E-1   -6.484380590783534E-1
 9.100054500000000E8     3.579521079541723E-1   -8.330357365868172E-1
 9.200054000000000E8     3.073692996727677E-2   -9.033015226387403E-1
 9.300053500000000E8    -2.988074592501442E-1   -8.487408405318115E-1
 9.400053000000000E8    -5.859012531954456E-1   -6.775148519227415E-1
 9.500052500000000E8    -7.886775030708544E-1   -4.126479800720705E-1
 9.600052000000000E8    -8.783908693178352E-1   -9.330718242593312E-2
 9.700051500000000E8    -8.437786781683324E-1    2.367559206119128E-1
 9.800051000000000E8    -6.867816292727470E-1    5.263367436853550E-1
 9.900050500000000E8    -4.376191174966217E-1    7.341130811231039E-1
 1.000005000000000E9    -1.312972354560721E-1    8.277706031161181E-1
 1.010004950000000E9     1.769247905035898E-1    8.026831085395432E-1
 1.020004900000000E9     4.476834544746312E-1    6.698203668376326E-1
 1.030004850000000E9     6.453014195310799E-1    4.583259669346036E-1
 1.040004800000000E9     7.613516484730057E-1    1.940779360463691E-1
 1.050004750000000E9     7.723331059747963E-1   -9.580083475916007E-2
 1.060004700000000E9     6.794083816494714E-1   -3.680266349135590E-1
 1.070004650000000E9     4.912959736447483E-1   -5.917028893212856E-1
 1.080004600000000E9     2.285601306569476E-1   -7.225731162730903E-1
 1.090004550000000E9    -5.701829942172580E-2   -7.429078243052776E-1
 1.100004500000000E9    -3.281299266234390E-1   -6.566086130608734E-1
 1.110004450000000E9    -5.362381618191614E-1   -4.710780498082100E-1
 1.120004400000000E9    -6.556861818589970E-1   -2.334800963845079E-1
 1.130004350000000E9    -6.781559807460081E-1    2.676932948493410E-2
 1.140004300000000E9    -6.043976940587527E-1    2.570120263660410E-1
 1.150004250000000E9    -4.641747902231020E-1    4.593856783705388E-1
 1.160004200000000E9    -2.607442750360660E-1    5.855073680307336E-1
 1.170004150000000E9    -2.799255457469127E-2    6.353395747632946E-1
 1.180004100000000E9     2.104149000661702E-1    5.955167904078974E-1
 1.190004050000000E9     4.221982661241155E-1    4.650280167312046E-1
 1.200004000000000E9     5.583119188482832E-1    2.633177074780040E-1
 1.210003950000000E9     6.019079808137526E-1    2.083357739102157E-2
 1.220003900000000E9     5.477944198765622E-1   -2.096180913793029E-1
 1.230003850000000E9     4.065326853509944E-1   -3.935989766829652E-1
 1.240003800000000E9     2.102963427038103E-1   -5.011009700318639E-1
 1.250003750000000E9     4.552665211076664E-3   -5.089090380732174E-1
 1.260003700000000E9    -1.764339245640355E-1   -4.604857871462164E-1
 1.270003650000000E9    -3.280375121372553E-1   -3.316637541831208E-1
 1.280003600000000E9    -3.999282318600423E-1   -1.905005479438870E-1
 1.290003550000000E9    -4.289659947455275E-1   -3.034030361452461E-2
 1.300003500000000E9    -3.902532697844828E-1    1.244681871644406E-1
 1.310003450000000E9    -3.149629819074614E-1    2.517533667313346E-1
 1.320003400000000E9    -1.900950882108425E-1    3.327573095235879E-1
 1.330003350000000E9    -5.002834550254596E-2    3.723288089072014E-1
 1.340003300000000E9     8.495936326519901E-2    3.415870459171615E-1
 1.350003250000000E9     2.033193642960295E-1    2.690011757480732E-1
 1.360003200000000E9     2.661326668291440E-1    1.591066636760067E-1
 1.370003150000000E9     2.779029324892012E-1    4.286957190102261E-2
 1.380003100000000E9     2.484006386443330E-1   -5.269289826032957E-2
 1.390003050000000E9     1.825332217773073E-1   -1.253277645137811E-1
 1.400003000000000E9     1.168924038150467E-1   -1.455186665033253E-1
 1.410002950000000E9     6.281777379992992E-2   -1.494652532132896E-1
 1.420002900000000E9     1.923818864572418E-2   -1.413777570858553E-1
 1.430002850000000E9     2.530261893280799E-3   -1.340426816544582E-1
 1.440002800000000E9    -3.899565206675544E-2   -1.360362972436439E-1
 1.450002750000000E9    -7.243359408644538E-2   -1.257720154424147E-1
 1.460002700000000E9    -1.242898778231581E-1   -1.019025062962419E-1
 1.470002650000000E9    -1.522938875622079E-1   -3.926634173108295E-2
 1.480002600000000E9    -1.501685529054853E-1    1.499894244785213E-2
 1.490002550000000E9    -1.245641355786378E-1    7.325221382787989E-2
 1.500002500000000E9    -7.636250702474714E-2    9.133881415089523E-2
 1.510002450000000E9    -4.263809210780463E-2    9.827403194346633E-2
 1.520002400000000E9    -1.082001338733524E-2    8.267770261871220E-2
 1.530002350000000E9    -1.175544957418396E-2    6.873976918322826E-2
 1.540002300000000E9    -4.219158095079644E-3    7.618389220292754E-2
 1.550002250000000E9    -4.700015930438088E-3    8.086084562800556E-2
 1.560002200000000E9     2.195148184330472E-2    1.044958663297477E-1
 1.570002150000000E9     5.503705871874959E-2    1.001569837088207E-1
 1.580002100000000E9     9.022810931609840E-2    8.778441930282477E-2
 1.590002050000000E9     1.156020420221019E-1    5.552046157965455E-2
 1.600002000000000E9     1.334931914369580E-1    1.780209989851774E-2
 1.610001950000000E9     1.291716438998113E-1   -1.903405160509484E-2
 1.620001900000000E9     1.302691788344494E-1   -4.965007487084594E-2
 1.630001850000000E9     1.108714615966682E-1   -8.978498062426234E-2
 1.640001800000000E9     9.949821258686679E-2   -1.102387462791531E-1
 1.650001750000000E9     6.942277580314836E-2   -1.689284967914424E-1
 1.660001700000000E9     2.034239915549228E-2   -1.873896717325761E-1
 1.670001650000000E9    -4.727936272733025E-2   -2.183247455375623E-1
 1.680001600000000E9    -1.385594059418600E-1   -2.075307431679772E-1
 1.690001550000000E9    -2.245976339963016E-1   -1.594966493770651E-1
 1.700001500000000E9    -2.942606223125599E-1   -7.114686636965810E-2
 1.710001450000000E9    -3.183247409266030E-1    4.590188008947925E-2
 1.720001400000000E9    -3.002903356790664E-1    1.758645529038723E-1
 1.730001350000000E9    -2.237996541984163E-1    2.776219593116876E-1
 1.740001300000000E9    -1.132617283531701E-1    3.583594972981859E-1
 1.750001250000000E9     2.550270557172089E-2    3.848316037487439E-1
 1.760001200000000E9     1.551338999418869E-1    3.561508335934236E-1
 1.770001150000000E9     2.786485273854384E-1    2.916167030389569E-1
 1.780001100000000E9     3.661234343740535E-1    1.738218553248002E-1
 1.790001050000000E9     4.081374857030238E-1    4.565334661210241E-2
 1.800001000000000E9     4.106655572180851E-1   -1.000844798181697E-1
 1.810000950000000E9     3.553197090008819E-1   -2.381652585360257E-1
 1.820000900000000E9     2.604920079516667E-1   -3.539551276606058E-1
 1.830000850000000E9     1.252384826555134E-1   -4.337876055263786E-1
 1.840000800000000E9    -3.481262234603471E-2   -4.600486361813259E-1
 1.850000750000000E9    -2.013646812175385E-1   -4.294071806825868E-1
 1.860000700000000E9    -3.462098949733766E-1   -3.377429241613013E-1
 1.870000650000000E9    -4.551099129952780E-1   -1.951648447304913E-1
 1.880000600000000E9    -4.988861827495698E-1   -2.367380424060907E-2
 1.890000550000000E9    -4.841404153533835E-1    1.550773411534366E-1
 1.900000500000000E9    -4.002527688978517E-1    3.200549466848270E-1
 1.910000450000000E9    -2.702364072609291E-1    4.328573456418110E-1
 1.920000400000000E9    -1.118372689570351E-1    5.058878426925676E-1
 1.930000350000000E9     6.551410937243686E-2    5.166929526380006E-1
 1.940000300000000E9     2.283896683634469E-1    4.664571840296515E-1
 1.950000250000000E9     3.736201919215257E-1    3.758898053741238E-1
 1.960000200000000E9     4.836551521934404E-1    2.345840152889808E-1
 1.970000150000000E9     5.407602334449618E-1    6.498954226270535E-2
 1.980000100000000E9     5.445187706406565E-1   -1.212923878360315E-1
 1.990000050000000E9     4.790832697852158E-1   -3.036506684924755E-1
 2.000000000000000E9     3.593945222154304E-1   -4.532693464011278E-1
