#  HZ   S   RI   R     50.00 
! Rohde & Schwarz Vector Network Analyzer 
! Rohde-Schwarz,ZNB8-4Port,REDACTED,3.12
! Created: UTC 3/23/2026, 8:28:47 PM
! ZX60-V63+
! freq[Hz]                re:S11                  im:S11                  re:S21                  im:S21                  re:S12                  im:S12                  re:S22                  im:S22
 5.000000000000000E7    -1.534822119689272E-1    9.810737715453316E-2    2.394695488690509       1.222776088923050E1     7.919284590046939E-3   -5.633953511805390E-2   -1.211232690417160E-1   -7.958376514377512E-2
 7.975000000000000E7     6.677736124111057E-2    9.922642431609222E-2    1.123967381678811E1     4.111306087129788      -4.713590353138294E-2   -3.297488068890844E-2   -8.014237781647550E-2    2.424184466037326E-2
 1.095000000000000E8     7.607384427371236E-2   -7.934002604913174E-3    9.262755391692831      -7.247180029079706      -5.259274952903405E-2    2.471969878451979E-2   -4.718463276027010E-2    9.866071227734238E-2
 1.392500000000000E8     6.029294614029428E-2   -7.882007155709869E-2   -1.293308923378228      -1.165796572915912E1    -5.279539822135255E-3    5.791640298963002E-2    1.071614402127391E-1    7.943065831675300E-2
 1.690000000000000E8    -8.799776826345784E-2   -1.044505726485598E-1   -1.062292461418651E1    -4.904071817974343       4.624891791086540E-2    3.433590506708826E-2    7.766010078823554E-2   -7.452104697572062E-2
 1.987500000000000E8    -9.971992008871972E-2    7.758250890769167E-2   -9.577216715797995       6.470209781339495       5.351372869453309E-2   -2.080761504726266E-2    5.122747922261242E-3   -5.637873979238813E-2
 2.285000000000000E8     3.504706607079196E-2    6.158965072894036E-2    4.450110955696939E-1    1.141982900828482E1     1.081410393626677E-2   -5.673591382695160E-2   -3.070402923514500E-2   -9.737931382248415E-2
 2.582500000000000E8     2.422635783469281E-2    2.941152097860559E-2    9.933494124238106       5.665152879343554      -4.261739810617982E-2   -3.889920455446095E-2   -1.517852474037836E-1    1.026914996708577E-2
 2.880000000000000E8     9.138674730518265E-2   -9.115882022993361E-3    1.005171957683417E1    -5.587712804077062      -5.507826183097851E-2    1.538482773950242E-2   -1.338809654397586E-2    1.416897288275770E-1
 3.177500000000000E8    -8.116283996666104E-3   -1.189738078563563E-1    3.521996090515045E-1   -1.142049397283023E1    -1.667781073509141E-2    5.444193050881596E-2    7.899653858245836E-2    5.175520453837962E-2
 3.475000000000000E8    -9.786556056063619E-2   -1.916593711764558E-3   -9.414931084938946      -6.190203444948984       3.713344503557996E-2    4.342324124174719E-2    9.724877792772167E-2    7.365486865438440E-3
 3.772500000000000E8    -2.584150049712568E-2    4.433254823304059E-2   -1.019895525615356E1     4.684467886113834       5.651179665809944E-2   -8.448940325163086E-3    8.619875166025824E-2   -1.187339071910894E-1
 4.070000000000000E8    -1.134922326630118E-2    5.207981158215304E-2   -1.354866121299160       1.118459861034980E1     2.284479789177802E-2   -5.198536310606491E-2   -8.653529819994847E-2   -1.292299978603131E-1
 4.367500000000000E8     6.371041796303360E-2    4.412637946329066E-2    8.863226364467380       6.933517311488419      -3.142786543203856E-2   -4.707303523989485E-2   -1.263214399551700E-1    7.275036991721886E-3
 4.665000000000000E8     4.915421273056876E-2   -4.839145922421935E-2    1.044705278132762E1    -3.930340814693623      -5.665105259251779E-2    1.142449326254292E-3   -8.252960907115033E-2    8.882959660953757E-2
 4.962500000000000E8    -1.078973409025041E-2   -3.929207722028611E-2    2.141254414273824      -1.089680248389988E1    -2.932352122892132E-2    4.845750482310297E-2    3.576472444081275E-2    1.439000065533319E-1
 5.260000000000000E8    -3.114646756052749E-2   -2.907750988599402E-2   -8.176721738198205      -7.529742977563180       2.519242988045679E-2    5.053092789490028E-2    1.509987868820943E-1    2.562539692510466E-2
 5.557500000000000E8    -4.910388986691375E-2    3.182738485612811E-2   -1.063311173335194E1     3.075639011707887       5.600513021241858E-2    6.004062955330232E-3    9.193988659800724E-2   -9.621114947406093E-2
 5.855000000000000E8     2.987677389536723E-2    4.059065868625349E-2   -2.921844597709971       1.056565820905098E1     3.518593327973071E-2   -4.406935812690042E-2   -1.805672642039184E-4   -1.441976424007082E-1
 6.152500000000000E8     1.102590362313689E-2   -1.154097515471521E-2    7.389382770851255       8.050094979203704      -1.842007364376307E-2   -5.324792405690924E-2   -1.549327216709533E-1   -9.139682721294032E-2
 6.450000000000000E8     2.067827644098304E-2    2.155098144164104E-2    1.080762838140786E1    -2.084927031996544      -5.464080172929599E-2   -1.308765824417758E-2   -1.367780495820076E-1    1.086483364894336E-1
 6.747500000000000E8     3.248939758274041E-2   -4.499111199870751E-2    3.767439018041781      -1.036695253831913E1    -4.039232706898680E-2    3.898856101496445E-2    1.556030796595645E-2    1.286514736745010E-1
 7.045000000000000E8    -4.270475254333501E-2   -1.128633769619931E-2   -6.845629986826924      -8.466908209629146       1.119480194783859E-2    5.505004066630196E-2    8.549005325646669E-2    9.322012091611993E-2
 7.342500000000000E8     2.101735630766868E-2    1.959737370700226E-2   -1.067187694070527E1     1.311058748435686       5.244135245648509E-2    2.006574627763850E-2    1.734795086966614E-1   -2.665896964808225E-2
 7.640000000000000E8    -7.132008258190928E-3   -3.580116863975571E-2   -4.558695725486638       9.756127704987577       4.497011287859656E-2   -3.346574681955195E-2    3.678855045256224E-2   -1.864149349288101E-1
 7.937500000000000E8    -2.395075276322480E-2    2.449644053351072E-2    5.989965433342839       9.015425889548519      -4.027067596433017E-3   -5.572139795533303E-2   -1.245183613767721E-1   -9.459849918131309E-2
 8.235000000000000E8     2.124592538502082E-2    2.294023533111215E-3    1.075689925210809E1    -4.675491458169168E-1   -4.901352364392700E-2   -2.661334618881600E-2   -1.311563631859843E-1    1.772735496749325E-2
 8.532500000000000E8    -1.169925787849141E-2    2.790377551704808E-3    5.196745729577707      -9.303029106866914      -4.887159830471379E-2    2.683031030565362E-2   -8.711849540521356E-2    1.299625491347232E-1
 8.830000000000000E8     3.113279702575442E-2    1.865491192237951E-2   -5.124630490607247      -9.321331891605903      -3.777858018424505E-3    5.578606505068495E-2    8.348851409463658E-2    1.512264263205801E-1
 9.127500000000000E8     2.479495459244403E-2   -3.967884044642183E-2   -1.067558466747382E1    -5.224783217299109E-1    4.518001705196350E-2    3.330281808651138E-2    1.570367310296836E-1   -3.877087154787299E-4
 9.425000000000000E8    -1.984500676484894E-2   -3.204083902783676E-2   -5.982457572843696       8.852496165783917       5.236323170769053E-2   -2.031296298318136E-2    9.004399762493205E-2   -1.125194424410444E-1
 9.722500000000000E8    -4.153021777592196E-2   -1.342159113064201E-2    4.400292288860521       9.679770997154348       1.104094604986347E-2   -5.514883877009805E-2   -4.278418325113820E-2   -1.503630323324466E-1
 1.002000000000000E9    -3.890077281357848E-2    5.019043924842198E-2    1.054099748655034E1     1.343333829022670      -4.067781836088698E-2   -3.897749302618243E-2   -1.532701776082165E-1   -2.729572831036773E-2
 1.031750000000000E9     4.450262210970772E-2    4.744568819103774E-2    6.660256564624079      -8.328381873327935      -5.478525394776834E-2    1.348681927597203E-2   -8.456088816464047E-2    9.545933859655575E-2
 1.061500000000000E9     4.027846168980780E-2   -9.594866280458981E-3   -3.679698279091911      -9.964675192893326      -1.804695933825519E-2    5.336840252596544E-2    3.773379353451966E-4    1.203669011908082E-1
 1.091250000000000E9     4.776701909189358E-2   -2.476142314254590E-2   -1.030841635224835E1    -2.056039018434298       3.519460930271920E-2    4.404035685575958E-2    1.238940068711019E-1    8.887917658111227E-2
 1.121000000000000E9    -6.619040037262615E-3   -9.843590771577614E-2   -7.180156936473405       7.626602033909204       5.642784675335106E-2   -6.000011289974356E-3    1.332861629684892E-1   -9.046999179762009E-2
 1.150750000000000E9    -1.135655690866809E-1   -1.070195043483998E-2    2.734241125432377       1.017696770916850E1     2.512112245726550E-2   -5.116138989020333E-2   -2.738262988724906E-2   -1.218305593911039E-1
 1.180500000000000E9    -2.872369081524737E-2    8.314706847833160E-2    1.016029336041277E1     2.927579083853917      -2.984581827088879E-2   -4.835962127466707E-2   -7.367021178984029E-2   -4.760946039366484E-2
 1.210250000000000E9     2.174741000708729E-2    4.918859343473981E-2    7.702608798824381      -7.132210121855717      -5.663567506267613E-2   -9.133693502971973E-4   -1.081459821666483E-1    1.434586890517518E-2
 1.240000000000000E9     6.426990677743058E-2    4.118949519820945E-2   -2.018207584776711      -1.021989651909711E1    -3.148749004796016E-2    4.736031524725818E-2   -3.915098973657668E-2    1.262407733272105E-1
 1.269750000000000E9     8.436096302984861E-2   -6.311361632739552E-2   -9.750330169615740      -3.659452909418829       2.327771140391630E-2    5.231650984018945E-2    9.212446859954335E-2    7.135378075967008E-2
 1.299500000000000E9    -3.945573544787241E-2   -1.036879756613849E-1   -8.215129282351311       6.417756440744403       5.681223779584520E-2    8.100264151604154E-3    7.496597020571584E-2   -3.059857720603792E-2
 1.329250000000000E9    -1.037041186755901E-1   -6.713465062070517E-3    1.207114368442871       1.032724695108445E1     3.711641074091662E-2   -4.361742845728058E-2    2.069521910712661E-2   -5.984427683305579E-2
 1.359000000000000E9    -6.090781672199780E-2    8.241476056615310E-2    9.402477718513298       4.335991472706723      -1.689470487497688E-2   -5.472425219052373E-2   -3.894170753033960E-2   -4.644376666373963E-2
 1.388750000000000E9     3.677511351395205E-2    9.311960605034321E-2    8.578531648516515      -5.743824358490467      -5.531755991459320E-2   -1.499504578481727E-2   -5.491110444543296E-2    1.006171815391813E-2
 1.418500000000000E9     8.278021498345851E-2    2.271103332541186E-2   -4.322875335672731E-1   -1.027949163171153E1    -4.229063591241342E-2    3.853896905028850E-2   -3.140857895533761E-2    5.052742697505646E-2
 1.448250000000000E9     7.697791555564455E-2   -4.127323189199124E-2   -8.946420850287218      -4.974943459201344       9.726472540237096E-3    5.650163240380652E-2    3.397266658846922E-2    6.605666024922352E-2
 1.478000000000000E9     2.969398518809621E-3   -1.164184404059260E-1   -8.897340398674118       5.004451233737587       5.326894547954916E-2    2.222032770991521E-2    6.727616402629281E-2   -1.986835416895705E-2
 1.507750000000000E9    -1.336570542325414E-1   -3.539442561389275E-2   -3.655155124792184E-1    1.018182399509454E1     4.719944530176873E-2   -3.349518301151000E-2   -2.173745091301925E-2   -3.742348815123817E-2
 1.537500000000000E9    -5.694602293432555E-2    1.119844845600229E-1    8.473978890706341       5.588782564781964      -3.286434837474180E-3   -5.745953053976512E-2   -5.304591039894983E-3    2.490274968605427E-2
 1.567250000000000E9     4.484039501238583E-2    6.478426172658606E-2    9.135564721031775      -4.292409840281133      -4.988979773422551E-2   -2.812507847875170E-2    5.444608513864250E-3   -1.200649531061813E-2
 1.597000000000000E9     5.410156542683062E-2    3.952280868861886E-2    1.127452126611859      -9.981711929466973      -5.081809137188036E-2    2.686890805502057E-2   -1.830244123535518E-2    3.283529947626838E-2
 1.626750000000000E9     9.958785884498907E-2   -3.488162013658492E-2   -7.914134926960427      -6.175288316693443      -4.411476264712897E-3    5.780987059859777E-2    6.540826027531160E-2    1.504482527492489E-2
 1.656500000000000E9    -1.858603423730918E-2   -1.192058751843170E-1   -9.359502826506947       3.562544834653657       4.680537899224570E-2    3.429352922382783E-2    5.400087951247952E-3   -7.804051916714254E-2
 1.686250000000000E9    -1.075702501852578E-1   -2.027376742138421E-3   -1.799586603046664       9.768979788835907       5.361886213677976E-2   -2.118057534184883E-2   -7.179606576054032E-2   -8.596825616865734E-3
 1.716000000000000E9    -3.446184821316867E-2    7.268304600249055E-2    7.319532192948815       6.591864540491559       1.090318001490912E-2   -5.639851134419598E-2   -3.423082982196016E-2    4.439791826860872E-2
 1.745750000000000E9     2.048897531142302E-2    6.128747065593523E-2    9.403195932917301      -2.760234603467373      -4.177953381296145E-2   -3.951498033718606E-2   -4.715039073520791E-3    5.985364456734615E-2
 1.775500000000000E9     5.940739145977080E-2    2.956496607471786E-2    2.556752160118998      -9.425903751307970      -5.581647129975716E-2    1.420244302794113E-2    5.689127001671737E-2    5.682002620296738E-2
 1.805250000000000E9     5.900114892244219E-2   -3.339035160258157E-2   -6.681364071677603      -7.075536551426877      -1.780401405542058E-2    5.481987975024386E-2    9.193996318113989E-2   -2.383860441580552E-2
 1.835000000000000E9    -4.839844936008030E-3   -7.227432627826290E-2   -9.483600057715876       2.013076288088313       3.692014223821591E-2    4.429943626200540E-2    2.389280863138744E-2   -1.092536461255156E-1
 1.864750000000000E9    -8.067074724972564E-2   -1.642570012629175E-2   -3.179958136398287       9.095660782166611       5.696666558295035E-2   -7.627226519911330E-3   -1.069086927040138E-1   -7.705971159664825E-2
 1.894500000000000E9    -3.118761665357688E-2    7.638754576170030E-2    6.042884688702966       7.363570866781137       2.389576936244951E-2   -5.194742563416834E-2   -1.197135452969994E-1    6.676626584608077E-2
 1.924250000000000E9     4.656124849492711E-2    3.440184470455097E-2    9.322873136708782      -1.241057942603432      -3.091217960253246E-2   -4.799247976356089E-2   -1.545072354025289E-2    1.212302043572901E-1
 1.954000000000000E9     2.233322924200240E-2    1.218817654451340E-3    3.880474831087323      -8.523001960847012      -5.711172620522106E-2    3.242208223274154E-4    6.861660026288430E-2    1.058962111555865E-1
 1.983750000000000E9     4.702659570696868E-2   -5.544701019874948E-3   -5.238518392142903      -7.810579183864767      -3.028998303687458E-2    4.859759272037859E-2    1.627915284363752E-1    1.119998896360316E-2
 2.013500000000000E9     4.267743943096549E-3   -7.571454832501213E-2   -9.390467354939059       4.725061946151397E-1    2.507417530455213E-2    5.142136383058515E-2    8.412541219094924E-2   -1.679686790193889E-1
 2.043250000000000E9    -7.540376317221553E-2   -9.700308418460899E-3   -4.371441813364549       8.175785563439320       5.657147041413933E-2    6.188379483764342E-3   -1.168833493451589E-1   -1.376912309094376E-1
 2.073000000000000E9    -1.242171728276464E-2    4.354207233975308E-2    4.572637531655300       7.879621446937642       3.543437341875199E-2   -4.423645733214943E-2   -1.601725291138027E-1    1.155749321300093E-2
 2.102750000000000E9    -7.725496379067347E-4    4.650329935632442E-3    9.031943353336189       3.162357943843470E-1   -1.835835467559357E-2   -5.355354394541391E-2   -1.174530898407334E-1    1.270482622706245E-1
 2.132500000000000E9    -1.141242014895107E-2    2.744961819011273E-2    5.039578926323244      -7.515843963061196      -5.500077081040844E-2   -1.321935007237528E-2    3.226915056254809E-2    2.071432866019565E-1
 2.162250000000000E9     2.745379479680505E-2    2.054648557583480E-2   -3.790345157200199      -8.221185430232543      -4.060828045250554E-2    3.935531636399266E-2    2.097877674951454E-1    8.661387063031499E-2
 2.192000000000000E9     2.139712774087746E-2   -1.742619183686458E-2   -8.944729107700482      -1.034998306426473       1.150391446582102E-2    5.540314130803228E-2    1.791830307034044E-1   -1.317243874639510E-1
 2.221750000000000E9    -6.073434976629556E-3   -2.563221018925384E-2   -5.514110958177102       7.029420396346691       5.288348065520946E-2    1.988823878498797E-2   -1.103375415117484E-2   -2.153083519742026E-1
 2.251500000000000E9    -2.548354200041298E-2   -1.461366874055557E-2    3.075093378847195       8.307203931197607       4.503720179525778E-2   -3.401340117755251E-2   -1.809745050593953E-1   -1.136671097870013E-1
 2.281250000000000E9    -3.579232643512163E-2   -1.463404940476312E-3    8.594748880024708       1.725064849964039      -4.682425120004829E-3   -5.607407556477357E-2   -2.014450846332854E-1    7.527724578998729E-2
 2.311000000000000E9    -4.770666286377734E-2    3.297192667343750E-2    5.957952116040967      -6.321339023473503      -4.968830089703684E-2   -2.608195898518470E-2   -7.063991685323374E-2    2.163517797578015E-1
 2.340750000000000E9     6.713967447806089E-3    7.670757759504100E-2   -2.182771814217448      -8.398363093627619      -4.868960773900143E-2    2.789253228337283E-2    1.526464367274316E-1    1.985707271467575E-1
 2.370500000000000E9     7.153879752420976E-2    1.509205684964892E-2   -8.343310956643840      -2.550389215357877      -2.543071072522303E-3    5.617198350172589E-2    2.607296872139362E-1   -3.855971873193991E-2
 2.400250000000000E9     2.355362625152265E-2   -4.822671952247827E-2   -6.454513627562243       5.830372112636812       4.622592542806847E-2    3.204130075814948E-2    9.089417117921833E-2   -2.368148253570160E-1
 2.430000000000000E9    -1.739763934953819E-2   -3.801085609780244E-2    1.620573632887786       8.396833844759108       5.151640447705139E-2   -2.198618794378140E-2   -1.280669828937248E-1   -1.984380421369282E-1
 2.459750000000000E9    -5.957411125473441E-2   -2.966628635525463E-2    7.840979872826256       3.021894783824299       8.944641562304309E-3   -5.493405786290460E-2   -2.398301247438018E-1   -3.577284258611124E-2
 2.489500000000000E9    -8.695759957263302E-2    5.947278376945448E-2    6.710502121521298      -4.975304004230454      -4.132997515841776E-2   -3.702199598833516E-2   -1.906863529379443E-1    1.879169685398698E-1
 2.519250000000000E9     2.365844935772515E-2    1.212308609934085E-1   -6.672980091156890E-1   -8.366358763611863      -5.351862819981292E-2    1.504353976424734E-2    6.350018088106918E-2    2.730426579806370E-1
 2.549000000000000E9     1.116031659256005E-1    2.824996111527025E-2   -7.515814661762339      -3.783153250513844      -1.589461598453418E-2    5.341616804270036E-2    2.594203085371435E-1    8.324829481387309E-2
 2.578750000000000E9     7.395769858131573E-2   -6.995804500234061E-2   -7.061516390081580       4.441479794602500       3.675449620852173E-2    4.171740109851498E-2    2.070531999296862E-1   -1.613893753710740E-1
 2.608500000000000E9    -1.229419693338749E-2   -1.063723120537957E-1    8.839211261240541E-2    8.219669710353244       5.456900318089133E-2   -8.746788993472128E-3   -2.849153672644658E-3   -2.682827128078130E-1
 2.638250000000000E9    -1.153208709763045E-1   -5.823275086153638E-2    6.935163582800256       4.220881817960696       2.182599858614166E-2   -5.043484180346137E-2   -2.283336624827733E-1   -1.703040174952321E-1
 2.668000000000000E9    -1.286279739136945E-1    8.361748440616303E-2    7.210998310624814      -3.604212663352192      -3.065667394646667E-2   -4.547131308733168E-2   -2.838566054672642E-1    8.671745122164359E-2
 2.697750000000000E9     1.326300507587186E-2    1.694626246135910E-1    7.708532091154213E-1   -8.006509350421016      -5.491005023175146E-2    1.378660403662146E-3   -9.313951969293564E-2    2.824058233383152E-1
 2.727500000000000E9     1.631126737330403E-1    6.740085293563296E-2   -6.405681376465295      -4.887282240282442      -2.833539259019552E-2    4.725741190624223E-2    1.751918221158575E-1    2.282244123328183E-1
