! Mini-Circuits								
! S2P DATA File Format								
! Type: BAND PASS FILTER								
! Model: ZX75BP-1450-S+								
! All S Parameters are in dB deg format								
! TEST CONDITIONS: INPUT POWER = 0 dBm @ Temperature = -40deg C	
# MHz S dB R 50
!Frequency        S11 dB  S11 DEG   S21 dB  S21 DEG   S12 dB  S12 DEG   S22 dB  S22 DEG
    .3000     -1.863930E-003 -7.931224E-002 -9.100870E+001  6.122638E+001 -9.982832E+001  3.082605E+001  5.822231E-004 -2.299192E-002
    .4000     -9.952098E-004 -9.030197E-002 -9.492001E+001  1.471023E+002 -9.465804E+001  6.271357E-001 -5.036314E-004 -5.278803E-002
    .5000     -3.498924E-003 -9.603895E-002 -9.507146E+001  1.061628E+002 -1.062483E+002 -1.434607E+002 -1.647193E-003 -7.817183E-002
    .6000     -2.776641E-003 -1.057132E-001 -9.906689E+001 -7.631652E+000 -1.014928E+002 -4.723348E+000 -2.211043E-003 -9.372549E-002
    .7000     -2.829485E-003 -1.154674E-001 -9.642542E+001 -2.803700E+001 -1.113265E+002 -8.698634E+000  5.665004E-004 -8.584403E-002
    .8000      6.241588E-004 -1.324740E-001 -1.040554E+002  1.643938E+002 -1.000287E+002 -9.481786E+001 -2.664062E-003 -1.147872E-001
    .9000     -2.859234E-003 -1.463979E-001 -1.031957E+002 -6.948138E+001 -1.003411E+002  8.581174E+001 -1.247027E-003 -1.313503E-001
   1.0000     -1.829508E-003 -1.631831E-001 -1.007576E+002 -1.786626E+002 -1.037092E+002 -1.418788E+002 -1.408995E-003 -1.339290E-001
   3.0000     -1.296540E-003 -4.817496E-001 -1.046408E+002  8.998641E+001 -9.816483E+001 -1.666874E+002 -2.029805E-003 -4.567024E-001
   5.0000     -1.239939E-003 -8.096142E-001 -1.063600E+002  8.806046E+001 -1.002255E+002 -8.538338E+001 -2.618227E-004 -7.529346E-001
   7.0000     -2.934932E-003 -1.117239E+000 -9.807904E+001 -1.679052E+002 -9.822905E+001 -1.792295E+002 -1.935515E-003 -1.060063E+000
   9.0000     -1.574898E-003 -1.442754E+000 -1.064233E+002  1.032520E+002 -9.967847E+001 -1.372408E+002 -2.613958E-003 -1.350625E+000
  10.0000     -3.002764E-003 -1.604583E+000 -9.740008E+001  1.606944E+002 -1.032772E+002 -1.564830E+002 -2.863858E-003 -1.517977E+000
  20.0000     -1.510065E-003 -3.214923E+000 -1.106468E+002  1.056452E+002 -9.814306E+001  1.579490E+002 -1.604670E-003 -3.017317E+000
  30.0000     -3.459093E-003 -4.810725E+000 -1.039366E+002  9.809676E+001 -1.133376E+002  1.480414E+002 -1.007823E-003 -4.501812E+000
  40.0000     -1.761194E-003 -6.399734E+000 -1.040998E+002 -1.005106E+002 -9.732568E+001  9.424971E+001 -1.264216E-003 -5.976652E+000
  50.0000     -2.436140E-003 -7.962195E+000 -1.158072E+002  7.407977E+001 -9.324001E+001  2.438284E+000 -2.770739E-003 -7.421492E+000
  60.0000     -2.613347E-003 -9.533864E+000 -1.138816E+002  1.298217E+002 -1.098253E+002  7.579459E+001 -7.243268E-004 -8.838421E+000
  70.0000     -1.463279E-003 -1.107988E+001 -1.070787E+002  1.658492E+002 -9.678905E+001 -3.902126E+001 -4.752101E-004 -1.024346E+001
  80.0000     -1.428694E-003 -1.261909E+001 -1.066989E+002  1.375229E+002 -9.823793E+001  4.466719E+001 -1.874927E-004 -1.161843E+001
  90.0000     -2.498872E-003 -1.413091E+001 -1.000811E+002  1.153249E+002 -1.192513E+002  2.359828E+001  1.112532E-003 -1.299581E+001
 100.0000     -6.587976E-004 -1.565113E+001 -1.012619E+002  4.088118E+001 -9.541261E+001 -2.384556E+001  1.470668E-003 -1.432852E+001
 110.0000     -4.906213E-004 -1.713363E+001 -1.019383E+002  1.066508E+002 -9.729966E+001 -9.302205E+001  3.259182E-003 -1.565361E+001
 120.0000     -7.324311E-004 -1.863245E+001 -1.002558E+002  1.701259E+002 -1.032961E+002 -1.716553E+002  4.842173E-003 -1.697276E+001
 130.0000     -5.106282E-004 -2.009721E+001 -9.813702E+001 -5.469132E+001 -9.486391E+001 -1.445611E+002  4.000904E-003 -1.826014E+001
 140.0000      7.947404E-004 -2.155385E+001 -1.054165E+002 -4.816648E+001 -1.000712E+002  1.668781E+002  5.306753E-003 -1.956561E+001
 150.0000      2.609985E-004 -2.300334E+001 -1.136893E+002  9.691391E+001 -9.775024E+001 -1.346926E+002  5.749766E-003 -2.085917E+001
 160.0000     -1.488809E-003 -2.445840E+001 -1.049643E+002  1.356859E+002 -1.047730E+002  5.594506E+001  5.586163E-003 -2.214805E+001
 170.0000     -1.498968E-003 -2.592456E+001 -1.011133E+002  1.123233E+002 -1.066122E+002  1.136844E+002  6.037181E-003 -2.345587E+001
 180.0000     -8.438288E-004 -2.738138E+001 -1.059170E+002 -6.904265E+001 -1.099580E+002 -8.501842E+000  6.435445E-003 -2.477849E+001
 190.0000     -1.741613E-003 -2.885272E+001 -9.669198E+001 -1.032718E+002 -1.040321E+002  2.660645E+001  6.937589E-003 -2.609740E+001
 200.0000     -1.061956E-003 -3.031531E+001 -1.035802E+002 -1.106006E+002 -1.091754E+002  1.353642E+002  6.380391E-003 -2.742706E+001
 210.0000     -6.270122E-004 -3.178303E+001 -1.043346E+002  1.491874E+002 -1.047630E+002 -1.722332E+001  7.725042E-003 -2.876307E+001
 220.0000     -1.018072E-003 -3.326503E+001 -1.036565E+002  1.520409E+002 -1.020039E+002 -1.235431E+002  9.058674E-003 -3.012197E+001
 230.0000     -6.814715E-004 -3.474779E+001 -9.962721E+001 -1.223635E+001 -1.155852E+002  1.157340E+002  8.294153E-003 -3.150153E+001
 240.0000      9.247435E-004 -3.625175E+001 -1.006498E+002 -4.088237E+001 -1.100242E+002  8.394765E+001  8.854329E-003 -3.291048E+001
 250.0000     -1.449933E-003 -3.778643E+001 -9.974217E+001 -7.880811E+001 -9.607700E+001  1.226243E+002  6.155171E-003 -3.434905E+001
 260.0000     -4.010216E-003 -3.934095E+001 -1.065095E+002 -5.092280E+001 -1.079889E+002  1.795564E+002  6.223785E-003 -3.580373E+001
 270.0000     -4.838026E-003 -4.090228E+001 -1.007738E+002  1.028616E+002 -1.034753E+002  1.551375E+002  5.693481E-003 -3.725957E+001
 280.0000     -5.289872E-003 -4.248373E+001 -9.831441E+001 -1.100385E+002 -1.075665E+002 -6.447480E+001  7.551320E-003 -3.876721E+001
 290.0000     -4.591072E-003 -4.407107E+001 -1.005576E+002  1.142368E+002 -9.710166E+001  1.455085E+002  6.154029E-003 -4.025813E+001
 300.0000     -7.460973E-003 -4.566358E+001 -9.740132E+001  7.071265E+001 -9.061652E+001  4.000933E+001  7.204132E-003 -4.176673E+001
 310.0000     -5.388079E-003 -4.726728E+001 -9.700480E+001 -1.422390E+002 -9.545989E+001  1.296201E+001  6.713705E-003 -4.330530E+001
 320.0000     -7.241715E-003 -4.890173E+001 -1.025248E+002  7.048062E+001 -1.032133E+002 -1.146709E+002  5.935509E-003 -4.483928E+001
 330.0000     -8.657788E-003 -5.056041E+001 -9.963406E+001  1.687749E+002 -1.032131E+002 -1.781469E+002  5.255773E-003 -4.640752E+001
 340.0000     -1.009087E-002 -5.221705E+001 -1.012660E+002 -1.280780E+002 -9.854777E+001 -1.735835E+002  4.223439E-003 -4.798653E+001
 350.0000     -1.137861E-002 -5.389674E+001 -1.033354E+002  7.971718E+001 -1.040507E+002 -7.307401E+001  1.908898E-003 -4.956961E+001
 360.0000     -1.426638E-002 -5.558923E+001 -9.694626E+001  1.620161E+002 -1.018069E+002 -4.252890E+001  3.062664E-003 -5.114042E+001
 370.0000     -1.420229E-002 -5.728373E+001 -1.163192E+002 -4.112008E+001 -1.038941E+002  5.597564E+001  2.179816E-003 -5.271104E+001
 380.0000     -1.739939E-002 -5.898101E+001 -1.049843E+002  1.173055E+002 -9.035937E+001 -9.179942E+001  4.397639E-003 -5.427278E+001
 390.0000     -1.461732E-002 -6.069193E+001 -1.071169E+002  1.375714E+002 -1.002175E+002 -8.411481E+001  2.587715E-003 -5.584448E+001
 400.0000     -1.554848E-002 -6.240881E+001 -1.010860E+002 -1.351664E+002 -9.753727E+001 -1.648553E+002  1.257662E-003 -5.739113E+001
 410.0000     -1.843071E-002 -6.412263E+001 -1.049759E+002 -1.658168E+002 -1.005101E+002 -7.328993E+001  1.397722E-003 -5.896320E+001
 420.0000     -2.046573E-002 -6.584792E+001 -1.143629E+002 -1.473815E+002 -1.222766E+002  4.339660E+001  1.273879E-003 -6.051106E+001
 430.0000     -2.344380E-002 -6.756791E+001 -9.577045E+001 -1.296299E+002 -1.011121E+002 -3.683341E+001 -1.397728E-003 -6.204653E+001
 440.0000     -2.368142E-002 -6.929088E+001 -1.018302E+002 -1.116700E+002 -1.025802E+002 -1.291161E+002 -3.270535E-003 -6.359586E+001
 450.0000     -2.499479E-002 -7.100733E+001 -1.008509E+002  3.137292E+001 -1.006206E+002  1.775825E+002 -2.869129E-003 -6.512444E+001
 460.0000     -2.587493E-002 -7.272975E+001 -1.109943E+002  4.792776E+001 -1.153335E+002 -1.686801E+002 -1.283748E-003 -6.665948E+001
 470.0000     -2.909132E-002 -7.444926E+001 -1.118276E+002 -6.669107E+000 -1.039101E+002 -1.638030E+002 -4.344833E-003 -6.817437E+001
 480.0000     -3.046417E-002 -7.617896E+001 -9.290487E+001 -1.601681E+002 -9.679952E+001  1.056363E+002 -4.168443E-003 -6.971138E+001
 490.0000     -3.213644E-002 -7.790510E+001 -9.734105E+001 -1.012437E+002 -1.050751E+002  8.163142E+001 -4.168584E-003 -7.123733E+001
 500.0000     -3.338850E-002 -7.961968E+001 -9.494760E+001 -9.226296E+001 -9.936839E+001  1.482231E+002 -5.412171E-003 -7.279166E+001
 510.0000     -3.677351E-002 -8.134819E+001 -9.773927E+001  6.316643E+001 -1.006351E+002 -7.099801E+001 -7.423062E-003 -7.433824E+001
 520.0000     -3.726098E-002 -8.307161E+001 -1.054829E+002  1.305639E+001 -1.086639E+002 -1.538793E+002 -9.352468E-003 -7.589370E+001
 530.0000     -3.961153E-002 -8.479041E+001 -9.686942E+001  1.026164E+002 -1.086522E+002  1.755878E+002 -9.521323E-003 -7.746134E+001
 540.0000     -3.911700E-002 -8.651344E+001 -9.930036E+001  1.350249E+002 -1.021838E+002 -7.408245E+001 -1.249318E-002 -7.903280E+001
 550.0000     -4.309789E-002 -8.823872E+001 -9.378780E+001  1.780243E+002 -1.001172E+002  1.498283E+002 -1.134437E-002 -8.060349E+001
 560.0000     -4.548735E-002 -8.998973E+001 -9.426374E+001  1.753492E+002 -1.092972E+002 -1.253930E+002 -1.225384E-002 -8.220499E+001
 570.0000     -4.782847E-002 -9.172484E+001 -1.053941E+002  9.159885E+001 -1.045893E+002 -1.581473E+002 -1.359766E-002 -8.380871E+001
 580.0000     -4.981641E-002 -9.347489E+001 -9.772110E+001  9.183772E+001 -9.786794E+001 -3.324548E+001 -1.473403E-002 -8.543020E+001
 590.0000     -5.169573E-002 -9.522923E+001 -1.091230E+002  1.424429E+002 -1.023731E+002  1.613607E+002 -1.700010E-002 -8.707325E+001
 600.0000     -5.603397E-002 -9.698668E+001 -1.141765E+002 -1.274336E+002 -9.931541E+001  1.231520E+002 -1.691401E-002 -8.874160E+001
 610.0000     -5.614950E-002 -9.876518E+001 -1.086040E+002 -1.647020E+002 -1.019197E+002  4.841053E+001 -2.150851E-002 -9.040627E+001
 620.0000     -5.847346E-002 -1.005431E+002 -9.679856E+001  1.663888E+002 -9.383570E+001  5.242376E+001 -2.366056E-002 -9.209989E+001
 630.0000     -6.120808E-002 -1.023481E+002 -1.092454E+002  9.694273E+001 -1.007136E+002  9.199090E+001 -2.486671E-002 -9.381126E+001
 640.0000     -6.384376E-002 -1.041676E+002 -9.460126E+001 -1.689710E+002 -9.327068E+001  1.711728E+002 -2.668844E-002 -9.554536E+001
 650.0000     -6.856814E-002 -1.059943E+002 -9.457358E+001  1.615403E+002 -1.035017E+002  9.398117E+001 -2.778857E-002 -9.727757E+001
 660.0000     -6.882464E-002 -1.078453E+002 -9.716812E+001  1.470670E+002 -9.436423E+001  2.266055E+001 -2.931619E-002 -9.902631E+001
 670.0000     -7.285449E-002 -1.096873E+002 -1.101052E+002  8.368506E+001 -1.127524E+002  9.827680E+001 -3.192507E-002 -1.007903E+002
 680.0000     -7.519669E-002 -1.115546E+002 -9.736371E+001 -3.468415E+001 -1.027021E+002 -7.728150E+001 -3.421662E-002 -1.025665E+002
 690.0000     -7.923975E-002 -1.134658E+002 -9.815182E+001  1.025462E+002 -1.060294E+002 -1.203106E+002 -3.500252E-002 -1.043580E+002
 700.0000     -8.162197E-002 -1.153731E+002 -1.125821E+002  2.447189E+001 -1.134191E+002 -6.440483E+001 -3.897023E-002 -1.061834E+002
 710.0000     -8.338755E-002 -1.173038E+002 -9.817490E+001 -1.313196E+002 -9.606907E+001  1.492347E+002 -4.333993E-002 -1.080197E+002
 720.0000     -8.729514E-002 -1.192559E+002 -9.695355E+001  1.219569E+002 -1.092183E+002 -1.004874E+002 -4.297256E-002 -1.098743E+002
 730.0000     -9.233447E-002 -1.212257E+002 -1.034330E+002 -1.791903E+002 -9.565010E+001 -1.590196E+002 -4.273535E-002 -1.117229E+002
 740.0000     -9.367406E-002 -1.232185E+002 -1.063439E+002  7.476237E+001 -9.589548E+001  7.634916E+001 -4.597891E-002 -1.136018E+002
 750.0000     -9.597364E-002 -1.252335E+002 -1.008430E+002 -1.085587E+002 -1.007509E+002  1.527704E+002 -4.855673E-002 -1.154976E+002
 760.0000     -1.005306E-001 -1.272576E+002 -9.465913E+001  1.010622E+002 -9.487014E+001  5.708454E+001 -5.203776E-002 -1.174071E+002
 770.0000     -1.038199E-001 -1.292965E+002 -9.393764E+001  8.827911E+001 -1.024597E+002  1.203518E+002 -5.600600E-002 -1.193556E+002
 780.0000     -1.086997E-001 -1.314046E+002 -1.034855E+002  1.046632E+002 -9.994588E+001 -1.436142E+002 -5.877902E-002 -1.213026E+002
 790.0000     -1.120635E-001 -1.334957E+002 -9.858387E+001  1.709289E+002 -1.047478E+002 -1.484461E+002 -6.248834E-002 -1.232999E+002
 800.0000     -1.147213E-001 -1.356266E+002 -9.193300E+001  1.144611E+002 -9.463321E+001  6.052903E+001 -6.558599E-002 -1.252856E+002
 810.0000     -1.182933E-001 -1.377887E+002 -9.797680E+001 -1.775555E+002 -1.089989E+002  1.831123E+000 -6.675388E-002 -1.273007E+002
 820.0000     -1.225407E-001 -1.399893E+002 -9.873824E+001  1.470945E+002 -1.086416E+002  1.015779E+002 -6.742089E-002 -1.293277E+002
 830.0000     -1.256937E-001 -1.422036E+002 -9.450786E+001  1.248435E+002 -9.923182E+001  1.074639E+002 -7.139292E-002 -1.314072E+002
 840.0000     -1.291172E-001 -1.444586E+002 -9.690825E+001  1.680953E+002 -1.213293E+002  1.339473E+002 -7.444236E-002 -1.335056E+002
 850.0000     -1.333018E-001 -1.467376E+002 -1.033546E+002  1.453401E+002 -1.012362E+002 -1.082837E+002 -7.928810E-002 -1.356339E+002
 860.0000     -1.398344E-001 -1.490757E+002 -9.330116E+001  8.819818E+001 -9.458142E+001  5.314318E+001 -8.413626E-002 -1.378115E+002
 870.0000     -1.460244E-001 -1.514647E+002 -9.711356E+001 -8.179342E+001 -9.835887E+001  9.549113E+001 -8.713771E-002 -1.400361E+002
 880.0000     -1.479598E-001 -1.538834E+002 -1.120579E+002 -1.710457E+002 -9.374183E+001  1.080926E+002 -9.203666E-002 -1.422874E+002
 890.0000     -1.526315E-001 -1.563537E+002 -9.217767E+001  5.714618E+001 -1.027048E+002 -2.223402E+001 -9.583662E-002 -1.445768E+002
 900.0000     -1.563385E-001 -1.588633E+002 -1.021408E+002  1.348456E+002 -1.004401E+002 -7.677002E+001 -1.012120E-001 -1.469213E+002
 910.0000     -1.623520E-001 -1.614343E+002 -1.112130E+002 -3.069464E+001 -9.341377E+001  3.067371E+000 -1.047429E-001 -1.493285E+002
 920.0000     -1.688497E-001 -1.640579E+002 -9.222652E+001 -9.202555E+001 -1.065591E+002  5.593802E+001 -1.102177E-001 -1.517777E+002
 930.0000     -1.746901E-001 -1.667666E+002 -9.246965E+001 -9.354699E+001 -9.748060E+001 -8.337430E+001 -1.162965E-001 -1.542948E+002
 940.0000     -1.805449E-001 -1.695171E+002 -9.121680E+001 -8.042972E+001 -8.641611E+001 -8.615104E+001 -1.230459E-001 -1.569063E+002
 950.0000     -1.835954E-001 -1.723750E+002 -8.783360E+001 -9.121821E+001 -8.982596E+001 -5.062930E+001 -1.272738E-001 -1.595992E+002
 960.0000     -1.902473E-001 -1.752956E+002 -8.432269E+001 -7.265426E+001 -8.251133E+001 -9.280986E+001 -1.344577E-001 -1.623444E+002
 970.0000     -1.943690E-001 -1.783033E+002 -8.204957E+001 -9.606314E+001 -7.984029E+001 -9.259237E+001 -1.424157E-001 -1.651907E+002
 980.0000     -2.001262E-001  1.786046E+002 -7.844225E+001 -8.653236E+001 -7.997719E+001 -9.649923E+001 -1.497193E-001 -1.681406E+002
 990.0000     -2.064457E-001  1.754076E+002 -7.641902E+001 -9.138055E+001 -7.621367E+001 -9.123122E+001 -1.585324E-001 -1.712063E+002
1000.0000     -2.134670E-001  1.720993E+002 -7.391635E+001 -9.724866E+001 -7.325103E+001 -9.866278E+001 -1.645661E-001 -1.743661E+002
1010.0000     -2.209549E-001  1.686668E+002 -7.078825E+001 -9.669729E+001 -7.048643E+001 -9.872382E+001 -1.740957E-001 -1.776537E+002
1020.0000     -2.282578E-001  1.650748E+002 -6.805676E+001 -1.025312E+002 -6.864333E+001 -1.004436E+002 -1.832701E-001  1.789080E+002
1030.0000     -2.364763E-001  1.613574E+002 -6.570502E+001 -1.063196E+002 -6.580035E+001 -1.045735E+002 -1.924722E-001  1.753167E+002
1040.0000     -2.441441E-001  1.574773E+002 -6.343222E+001 -1.108782E+002 -6.322185E+001 -1.103547E+002 -2.052266E-001  1.715755E+002
1050.0000     -2.509997E-001  1.534281E+002 -6.074884E+001 -1.138179E+002 -6.061208E+001 -1.146285E+002 -2.173396E-001  1.676525E+002
1060.0000     -2.624174E-001  1.491738E+002 -5.813140E+001 -1.181777E+002 -5.810937E+001 -1.177078E+002 -2.285239E-001  1.635264E+002
1070.0000     -2.753294E-001  1.446892E+002 -5.545435E+001 -1.224395E+002 -5.545164E+001 -1.218998E+002 -2.440609E-001  1.591544E+002
1080.0000     -2.823144E-001  1.399528E+002 -5.269794E+001 -1.272729E+002 -5.268477E+001 -1.279343E+002 -2.583576E-001  1.545328E+002
1090.0000     -2.961790E-001  1.349251E+002 -4.998503E+001 -1.324687E+002 -5.004991E+001 -1.330156E+002 -2.752391E-001  1.496030E+002
1100.0000     -3.086430E-001  1.295424E+002 -4.720809E+001 -1.383559E+002 -4.719289E+001 -1.382793E+002 -2.959481E-001  1.443116E+002
1102.0000     -3.116151E-001  1.284424E+002 -4.664652E+001 -1.391495E+002 -4.666614E+001 -1.392763E+002 -3.005693E-001  1.432179E+002
1106.0000     -3.199001E-001  1.261510E+002 -4.547259E+001 -1.415852E+002 -4.550520E+001 -1.418188E+002 -3.105161E-001  1.409546E+002
1110.0000     -3.250404E-001  1.238051E+002 -4.432345E+001 -1.439364E+002 -4.436958E+001 -1.441845E+002 -3.191659E-001  1.386336E+002
1114.0000     -3.307860E-001  1.213620E+002 -4.317226E+001 -1.463846E+002 -4.320366E+001 -1.465684E+002 -3.290924E-001  1.362073E+002
1118.0000     -3.390391E-001  1.188675E+002 -4.200206E+001 -1.489916E+002 -4.200055E+001 -1.491370E+002 -3.402069E-001  1.337271E+002
1122.0000     -3.482875E-001  1.162775E+002 -4.079248E+001 -1.516996E+002 -4.082498E+001 -1.516482E+002 -3.521901E-001  1.311433E+002
1126.0000     -3.580102E-001  1.136177E+002 -3.958323E+001 -1.543692E+002 -3.960859E+001 -1.545507E+002 -3.622431E-001  1.284568E+002
1130.0000     -3.682776E-001  1.108542E+002 -3.836198E+001 -1.572124E+002 -3.839423E+001 -1.573719E+002 -3.761797E-001  1.256829E+002
1134.0000     -3.786324E-001  1.079841E+002 -3.710941E+001 -1.601764E+002 -3.715478E+001 -1.602738E+002 -3.891077E-001  1.227966E+002
1138.0000     -3.877313E-001  1.050075E+002 -3.586584E+001 -1.633000E+002 -3.589425E+001 -1.633997E+002 -4.049209E-001  1.197785E+002
1142.0000     -4.026121E-001  1.018976E+002 -3.458612E+001 -1.665488E+002 -3.461851E+001 -1.665958E+002 -4.213236E-001  1.166481E+002
1146.0000     -4.152171E-001  9.868231E+001 -3.329367E+001 -1.698268E+002 -3.332782E+001 -1.699284E+002 -4.411567E-001  1.133566E+002
1150.0000     -4.300075E-001  9.530882E+001 -3.197692E+001 -1.733822E+002 -3.201815E+001 -1.734164E+002 -4.581733E-001  1.099160E+002
1154.0000     -4.451641E-001  9.176948E+001 -3.065128E+001 -1.770630E+002 -3.068581E+001 -1.771099E+002 -4.792808E-001  1.062764E+002
1158.0000     -4.631558E-001  8.807861E+001 -2.929801E+001  1.790867E+002 -2.933347E+001  1.790450E+002 -5.036504E-001  1.024721E+002
1162.0000     -4.821473E-001  8.419786E+001 -2.792190E+001  1.750044E+002 -2.795907E+001  1.749987E+002 -5.298558E-001  9.844665E+001
1166.0000     -5.065268E-001  8.013097E+001 -2.652644E+001  1.706840E+002 -2.655697E+001  1.706918E+002 -5.607617E-001  9.417841E+001
1170.0000     -5.337037E-001  7.582195E+001 -2.510237E+001  1.661169E+002 -2.513967E+001  1.661465E+002 -5.947528E-001  8.963007E+001
1174.0000     -5.654237E-001  7.126725E+001 -2.366275E+001  1.612795E+002 -2.369508E+001  1.612949E+002 -6.356899E-001  8.476815E+001
1178.0000     -6.019248E-001  6.643135E+001 -2.219551E+001  1.561133E+002 -2.223120E+001  1.561628E+002 -6.852055E-001  7.958064E+001
1182.0000     -6.460554E-001  6.128650E+001 -2.070754E+001  1.505515E+002 -2.074192E+001  1.506203E+002 -7.422382E-001  7.397442E+001
1186.0000     -7.017753E-001  5.579384E+001 -1.919498E+001  1.446111E+002 -1.923002E+001  1.447030E+002 -8.125075E-001  6.792894E+001
1190.0000     -7.711126E-001  4.990068E+001 -1.766556E+001  1.382130E+002 -1.769866E+001  1.383220E+002 -8.964763E-001  6.137019E+001
1194.0000     -8.630078E-001  4.355782E+001 -1.612065E+001  1.312688E+002 -1.614843E+001  1.314224E+002 -1.000741E+000  5.421545E+001
