! Mini-Circuits								
! S2P DATA File Format								
! Type: BAND PASS FILTER								
! Model: ZX75BP-1450-S+								
! All S Parameters are in dB deg format								
! TEST CONDITIONS: INPUT POWER = 0 dBm @ Temperature = +85deg C	
# MHz S dB R 50
!Frequency        S11 dB  S11 DEG   S21 dB  S21 DEG   S12 dB  S12 DEG   S22 dB  S22 DEG
    .3000     -4.424895E-003 -2.165079E-002 -9.245379E+001 -7.206846E+001 -8.906992E+001  4.587910E+001  4.581514E-004 -6.052058E-002
    .4000     -3.745902E-003 -5.600752E-002 -1.022158E+002  1.233833E+002 -9.661389E+001  1.361336E+002  3.786701E-004 -7.259081E-002
    .5000     -4.183253E-003 -5.833391E-002 -1.036182E+002  1.141008E+002 -9.331704E+001 -2.019762E+001 -1.260927E-003 -9.819296E-002
    .6000     -5.935533E-003 -7.393061E-002 -9.844665E+001  1.280885E+002 -1.092533E+002 -2.455359E+001 -9.963150E-004 -1.131334E-001
    .7000     -3.719933E-003 -9.543801E-002 -1.070657E+002 -1.003455E+002 -1.126846E+002  1.726529E+002 -1.193256E-003 -1.002244E-001
    .8000     -3.793986E-003 -1.002410E-001 -1.034793E+002  7.789153E+001 -9.598987E+001 -6.430757E+001 -1.437226E-003 -1.182913E-001
    .9000     -3.801709E-003 -1.033056E-001 -1.025106E+002  9.269308E+000 -1.082841E+002 -7.473817E+001 -2.311863E-003 -1.362377E-001
   1.0000     -4.275029E-003 -1.344824E-001 -1.051992E+002  3.761269E+000 -1.062333E+002  6.626424E+001 -3.320977E-003 -1.320982E-001
   3.0000     -3.090427E-003 -4.184412E-001 -9.650867E+001 -1.340900E+002 -1.067962E+002 -1.453846E+002 -3.925347E-003 -3.926783E-001
   5.0000     -3.864486E-003 -7.247564E-001 -1.083498E+002 -1.427257E+002 -9.442477E+001  9.382195E+001 -2.805895E-003 -6.493032E-001
   7.0000     -5.412261E-003 -1.012140E+000 -1.017955E+002  8.921241E+001 -1.125016E+002  1.231320E+002 -4.365973E-003 -8.974380E-001
   9.0000     -4.222651E-003 -1.305215E+000 -1.020217E+002  7.059370E+001 -1.003531E+002  8.046600E+001 -4.353852E-003 -1.152965E+000
  10.0000     -4.923498E-003 -1.456519E+000 -1.134917E+002 -7.878413E+001 -9.338837E+001  9.013692E+001 -4.157228E-003 -1.279535E+000
  20.0000     -4.731117E-003 -2.917581E+000 -9.792453E+001  1.495636E+002 -1.137134E+002  5.355489E+001 -3.919194E-003 -2.560877E+000
  30.0000     -5.438535E-003 -4.402239E+000 -9.730247E+001  1.623153E+002 -1.069158E+002  1.011087E+002 -4.647058E-003 -3.838380E+000
  40.0000     -6.457824E-003 -5.866567E+000 -1.114682E+002 -1.255381E+002 -1.002330E+002  2.269444E+001 -3.788890E-003 -5.115031E+000
  50.0000     -8.419141E-003 -7.343234E+000 -1.037682E+002 -5.433523E+001 -1.070015E+002  1.080557E+002 -5.517836E-003 -6.420737E+000
  60.0000     -8.303109E-003 -8.824450E+000 -1.066610E+002 -5.758603E+001 -9.878772E+001 -8.919514E+001 -6.465111E-003 -7.728744E+000
  70.0000     -8.086377E-003 -1.031821E+001 -1.011664E+002  1.575932E+002 -9.816936E+001 -1.067819E+002 -5.428883E-003 -9.048081E+000
  80.0000     -9.414988E-003 -1.181588E+001 -9.664607E+001 -1.401976E+002 -1.060920E+002 -9.250539E+001 -6.632559E-003 -1.039089E+001
  90.0000     -8.711883E-003 -1.332043E+001 -1.025881E+002  5.408037E+001 -1.023903E+002  1.439329E+002 -8.168386E-003 -1.177069E+001
 100.0000     -1.014292E-002 -1.484933E+001 -9.834984E+001  1.082183E+002 -1.032818E+002 -9.924636E+001 -8.344855E-003 -1.315069E+001
 110.0000     -1.199865E-002 -1.636697E+001 -1.181985E+002 -7.344001E+001 -1.036606E+002 -5.321736E+001 -9.631620E-003 -1.455092E+001
 120.0000     -1.472487E-002 -1.791758E+001 -1.186966E+002  4.979474E+001 -1.026799E+002  1.541346E+001 -1.013639E-002 -1.597029E+001
 130.0000     -1.516062E-002 -1.944420E+001 -1.110063E+002  1.437389E+001 -9.634045E+001  8.100802E+001 -1.256020E-002 -1.738911E+001
 140.0000     -1.461802E-002 -2.099910E+001 -9.967941E+001  1.558914E+002 -9.860679E+001  6.213459E+001 -1.258322E-002 -1.882704E+001
 150.0000     -1.576384E-002 -2.254616E+001 -1.035819E+002 -1.144277E+002 -1.023171E+002 -4.596030E+001 -1.374992E-002 -2.027380E+001
 160.0000     -1.795221E-002 -2.411436E+001 -1.060108E+002 -8.886288E+001 -1.089553E+002  1.369471E+002 -1.522115E-002 -2.170095E+001
 170.0000     -1.910315E-002 -2.568518E+001 -1.077557E+002  1.691742E+001 -1.016206E+002 -1.014602E+002 -1.526434E-002 -2.313939E+001
 180.0000     -2.037651E-002 -2.726695E+001 -9.884407E+001  1.577753E+002 -9.692066E+001 -1.267452E+001 -1.722630E-002 -2.459179E+001
 190.0000     -2.385428E-002 -2.885310E+001 -1.054856E+002 -5.877562E+001 -1.007033E+002  8.070951E+000 -1.769249E-002 -2.603975E+001
 200.0000     -2.566173E-002 -3.042760E+001 -9.936288E+001 -1.050024E+002 -1.026635E+002  6.622181E+000 -1.921941E-002 -2.746535E+001
 210.0000     -2.562022E-002 -3.202398E+001 -9.999903E+001 -9.968100E-001 -1.046417E+002 -1.409051E+002 -2.037572E-002 -2.891380E+001
 220.0000     -2.623829E-002 -3.360433E+001 -1.071021E+002  1.077159E+002 -1.006537E+002 -2.165414E+001 -2.072695E-002 -3.034954E+001
 230.0000     -2.766607E-002 -3.518067E+001 -1.101059E+002  2.170875E+001 -9.981364E+001 -9.640803E+001 -1.964501E-002 -3.177596E+001
 240.0000     -2.926215E-002 -3.675985E+001 -1.008560E+002  5.584236E+001 -9.771856E+001  7.959407E+001 -2.148510E-002 -3.316888E+001
 250.0000     -3.236879E-002 -3.834196E+001 -1.013234E+002  5.349863E+001 -1.104950E+002 -9.794177E+001 -2.392991E-002 -3.459646E+001
 260.0000     -3.376174E-002 -3.991420E+001 -9.970315E+001 -8.477509E+001 -1.063064E+002  2.816725E+001 -2.364678E-002 -3.598907E+001
 270.0000     -3.599428E-002 -4.149871E+001 -1.028064E+002 -1.181296E+002 -9.935320E+001  6.232773E+001 -2.486630E-002 -3.737333E+001
 280.0000     -3.916290E-002 -4.309325E+001 -1.117854E+002  1.081225E+002 -1.084148E+002  1.147354E+002 -2.558544E-002 -3.877654E+001
 290.0000     -4.003989E-002 -4.466578E+001 -1.100021E+002  9.709074E+001 -1.029908E+002 -1.156100E+002 -2.653480E-002 -4.014959E+001
 300.0000     -4.349490E-002 -4.624193E+001 -1.162377E+002  1.234693E+002 -9.962888E+001  1.755481E+002 -2.559873E-002 -4.152188E+001
 310.0000     -4.220423E-002 -4.779869E+001 -9.633011E+001  3.286036E+001 -1.071532E+002 -5.260105E+000 -2.824689E-002 -4.289418E+001
 320.0000     -4.504418E-002 -4.936553E+001 -1.079747E+002  1.173385E+002 -9.990155E+001  1.585184E+002 -2.821719E-002 -4.426190E+001
 330.0000     -4.759330E-002 -5.092649E+001 -9.517278E+001 -1.555040E+002 -9.636079E+001 -1.060162E+002 -2.897076E-002 -4.563469E+001
 340.0000     -4.917234E-002 -5.248368E+001 -9.781541E+001  1.263989E+002 -1.048348E+002  3.815409E+000 -3.003139E-002 -4.700824E+001
 350.0000     -5.209360E-002 -5.404641E+001 -9.915031E+001  1.164894E+001 -1.013892E+002 -1.222770E+002 -3.338167E-002 -4.837709E+001
 360.0000     -5.513956E-002 -5.562333E+001 -1.091748E+002 -1.493242E+002 -9.890772E+001 -3.394461E+001 -3.247281E-002 -4.976370E+001
 370.0000     -5.883246E-002 -5.720505E+001 -9.917584E+001  1.225332E+002 -9.651596E+001 -1.725322E+002 -3.558356E-002 -5.114937E+001
 380.0000     -6.208409E-002 -5.877716E+001 -1.038925E+002 -5.377922E+001 -9.920409E+001  8.426447E+001 -3.342167E-002 -5.253206E+001
 390.0000     -6.034843E-002 -6.035854E+001 -1.066693E+002  1.525768E+002 -1.114175E+002  1.895942E+001 -3.642770E-002 -5.393312E+001
 400.0000     -6.449696E-002 -6.191552E+001 -9.696920E+001 -1.701105E+002 -1.002684E+002 -1.520664E+002 -3.826030E-002 -5.531293E+001
 410.0000     -6.679503E-002 -6.347804E+001 -1.010545E+002  1.224034E+002 -1.015204E+002  4.986911E+001 -3.980523E-002 -5.671853E+001
 420.0000     -6.929079E-002 -6.504672E+001 -1.013987E+002 -1.410601E+002 -1.046688E+002  6.960352E+001 -4.032352E-002 -5.811734E+001
 430.0000     -7.358800E-002 -6.662302E+001 -1.056966E+002  1.470955E+002 -9.806730E+001 -2.654380E+001 -4.334266E-002 -5.952579E+001
 440.0000     -7.617995E-002 -6.819338E+001 -1.226303E+002  6.032740E+001 -1.000647E+002  7.178202E+001 -4.560872E-002 -6.097031E+001
 450.0000     -7.910448E-002 -6.979128E+001 -9.758971E+001 -1.627510E+002 -1.075266E+002 -9.504016E+000 -4.626176E-002 -6.240387E+001
 460.0000     -8.217718E-002 -7.139252E+001 -9.707248E+001 -3.632886E+000 -1.058631E+002 -1.247829E+002 -4.872693E-002 -6.386216E+001
 470.0000     -8.460399E-002 -7.298418E+001 -1.078040E+002 -1.704722E+002 -9.743092E+001  1.383830E+002 -5.035837E-002 -6.532222E+001
 480.0000     -8.736719E-002 -7.457812E+001 -1.015828E+002 -1.068442E+002 -1.001004E+002 -9.843379E+001 -5.271019E-002 -6.680809E+001
 490.0000     -9.120126E-002 -7.618979E+001 -9.842065E+001 -1.290561E+002 -9.984455E+001 -1.212882E+002 -5.199031E-002 -6.829387E+001
 500.0000     -9.441496E-002 -7.779018E+001 -1.016715E+002 -9.516962E+001 -1.017945E+002  1.629612E+002 -5.455276E-002 -6.980260E+001
 510.0000     -9.971721E-002 -7.942705E+001 -9.862999E+001  1.070515E+002 -9.738205E+001 -1.676249E+002 -5.888868E-002 -7.129980E+001
 520.0000     -1.017561E-001 -8.103833E+001 -9.720093E+001 -1.783547E+002 -1.014349E+002 -1.542198E+002 -6.082124E-002 -7.280848E+001
 530.0000     -1.039667E-001 -8.268359E+001 -1.070110E+002  1.609483E+002 -1.094679E+002  1.522299E+002 -6.014692E-002 -7.434589E+001
 540.0000     -1.070770E-001 -8.432614E+001 -1.061310E+002  8.358445E+001 -9.476541E+001 -7.798100E+001 -6.341307E-002 -7.588219E+001
 550.0000     -1.107030E-001 -8.598447E+001 -1.107960E+002 -1.075228E+002 -1.083716E+002  1.650722E+002 -6.446546E-002 -7.742586E+001
 560.0000     -1.156286E-001 -8.766628E+001 -1.058773E+002 -1.598547E+002 -9.729573E+001 -1.299372E+002 -6.773195E-002 -7.898740E+001
 570.0000     -1.179560E-001 -8.933789E+001 -1.166031E+002  1.352893E+002 -1.121570E+002 -1.781890E+001 -7.003186E-002 -8.055383E+001
 580.0000     -1.227666E-001 -9.104196E+001 -1.099339E+002  1.192524E+001 -1.000527E+002 -1.595931E+002 -7.313674E-002 -8.212399E+001
 590.0000     -1.250353E-001 -9.272430E+001 -9.970564E+001  7.494494E+001 -9.891057E+001  1.663695E+002 -7.465972E-002 -8.368998E+001
 600.0000     -1.306908E-001 -9.442393E+001 -9.452020E+001 -1.434927E+002 -1.010855E+002  9.575311E+001 -7.511619E-002 -8.528288E+001
 610.0000     -1.356461E-001 -9.614829E+001 -9.852432E+001  1.513775E+002 -9.578704E+001  1.237444E+002 -7.905200E-002 -8.685215E+001
 620.0000     -1.376212E-001 -9.789526E+001 -9.670639E+001 -1.635554E+002 -1.043810E+002  1.657417E+002 -8.128470E-002 -8.844937E+001
 630.0000     -1.401323E-001 -9.964835E+001 -1.012571E+002  1.191320E+002 -1.007625E+002 -1.276745E+002 -8.372439E-002 -9.006412E+001
 640.0000     -1.449787E-001 -1.014213E+002 -1.149809E+002 -5.668501E+001 -1.030650E+002  1.790577E+002 -8.606142E-002 -9.171243E+001
 650.0000     -1.510079E-001 -1.031949E+002 -1.067338E+002 -1.344401E+001 -1.051004E+002 -8.554342E+001 -8.815461E-002 -9.333046E+001
 660.0000     -1.539317E-001 -1.049936E+002 -1.065457E+002  1.340609E+002 -1.018979E+002 -5.365188E+001 -9.028085E-002 -9.497003E+001
 670.0000     -1.596394E-001 -1.067873E+002 -9.948327E+001 -8.195009E+000 -1.030380E+002 -2.042064E+000 -9.414228E-002 -9.661424E+001
 680.0000     -1.630827E-001 -1.086023E+002 -1.030716E+002 -1.059678E+002 -1.025241E+002 -1.705665E+002 -9.647852E-002 -9.824806E+001
 690.0000     -1.664043E-001 -1.104620E+002 -1.066868E+002  1.050570E+002 -1.008107E+002 -1.042654E+002 -9.745408E-002 -9.991157E+001
 700.0000     -1.707978E-001 -1.123078E+002 -1.024154E+002  6.694252E+001 -1.018644E+002  1.692468E+002 -1.021304E-001 -1.015995E+002
 710.0000     -1.748226E-001 -1.141950E+002 -9.691768E+001 -1.316998E+002 -1.102052E+002  1.606505E+002 -1.058715E-001 -1.033069E+002
 720.0000     -1.793455E-001 -1.161007E+002 -9.791693E+001  5.117149E+001 -9.991194E+001 -8.135692E+001 -1.076238E-001 -1.050486E+002
 730.0000     -1.841949E-001 -1.180053E+002 -1.016896E+002  5.068842E+001 -1.013233E+002  2.950607E+001 -1.099308E-001 -1.067816E+002
 740.0000     -1.872214E-001 -1.199480E+002 -9.317216E+001  1.321540E+002 -9.379984E+001  1.025344E+002 -1.132170E-001 -1.085463E+002
 750.0000     -1.902661E-001 -1.219092E+002 -1.113253E+002 -2.912922E+001 -1.110087E+002  1.423106E+002 -1.150983E-001 -1.103268E+002
 760.0000     -1.958480E-001 -1.238700E+002 -9.689303E+001  7.383348E+001 -9.649553E+001  1.260992E+002 -1.191573E-001 -1.121158E+002
 770.0000     -1.997800E-001 -1.258643E+002 -9.452878E+001  1.372793E+002 -9.085658E+001  1.428193E+002 -1.218797E-001 -1.139489E+002
 780.0000     -2.050838E-001 -1.279085E+002 -9.750237E+001 -1.396157E+002 -9.363486E+001  8.403777E+001 -1.259826E-001 -1.157912E+002
 790.0000     -2.099859E-001 -1.299545E+002 -9.689792E+001 -1.710321E+002 -9.776949E+001 -1.439320E+002 -1.313446E-001 -1.176930E+002
 800.0000     -2.144488E-001 -1.320504E+002 -1.169818E+002  3.643623E+001 -9.347522E+001  1.226393E+002 -1.346891E-001 -1.196188E+002
 810.0000     -2.181049E-001 -1.341563E+002 -9.771818E+001  9.286848E+001 -9.155307E+001  1.221585E+002 -1.399913E-001 -1.215459E+002
 820.0000     -2.242181E-001 -1.363008E+002 -9.868145E+001  1.365189E+002 -9.801386E+001  7.003813E+001 -1.389335E-001 -1.235229E+002
 830.0000     -2.280208E-001 -1.384719E+002 -9.979198E+001 -1.199024E+002 -9.220389E+001 -1.501336E+002 -1.423488E-001 -1.255359E+002
 840.0000     -2.332564E-001 -1.406717E+002 -1.002381E+002  1.290846E+002 -9.120995E+001  1.016671E+002 -1.480751E-001 -1.275551E+002
 850.0000     -2.375044E-001 -1.429137E+002 -9.642670E+001 -1.402209E+002 -9.626142E+001  8.503419E+001 -1.539872E-001 -1.296297E+002
 860.0000     -2.436133E-001 -1.451946E+002 -9.734313E+001  1.066884E+002 -1.020863E+002  1.239444E+002 -1.584241E-001 -1.317492E+002
 870.0000     -2.502051E-001 -1.475571E+002 -9.708214E+001  1.487178E+002 -9.459019E+001  1.278997E+002 -1.634160E-001 -1.339343E+002
 880.0000     -2.541343E-001 -1.499477E+002 -9.754468E+001  8.307565E+001 -9.625317E+001 -1.665599E+002 -1.679314E-001 -1.361418E+002
 890.0000     -2.603671E-001 -1.523725E+002 -1.015851E+002  1.272724E+002 -1.110811E+002 -1.530171E+002 -1.739024E-001 -1.384006E+002
 900.0000     -2.658564E-001 -1.548364E+002 -9.493431E+001  3.497367E+001 -9.604138E+001 -9.440945E+001 -1.780878E-001 -1.406998E+002
 910.0000     -2.703081E-001 -1.573600E+002 -9.933645E+001  2.152532E+001 -1.076258E+002 -1.088628E+002 -1.830649E-001 -1.430583E+002
 920.0000     -2.772985E-001 -1.599423E+002 -9.431802E+001 -3.259179E+001 -9.432626E+001  4.052754E-001 -1.894271E-001 -1.454570E+002
 930.0000     -2.838105E-001 -1.625979E+002 -9.380870E+001 -4.203796E+001 -8.988809E+001 -1.256342E+001 -1.958213E-001 -1.479332E+002
 940.0000     -2.912461E-001 -1.653331E+002 -9.272044E+001 -9.197844E+001 -8.966965E+001 -7.002885E+001 -2.020327E-001 -1.504766E+002
 950.0000     -2.964311E-001 -1.681561E+002 -8.609943E+001 -6.661334E+001 -8.363688E+001 -8.968137E+001 -2.076472E-001 -1.530986E+002
 960.0000     -3.035468E-001 -1.710481E+002 -8.441212E+001 -8.476720E+001 -8.316685E+001 -8.341696E+001 -2.166334E-001 -1.558042E+002
 970.0000     -3.092379E-001 -1.740450E+002 -8.031897E+001 -8.067204E+001 -7.994453E+001 -6.681522E+001 -2.247140E-001 -1.585740E+002
 980.0000     -3.156708E-001 -1.770999E+002 -7.741240E+001 -7.838613E+001 -7.880302E+001 -8.260121E+001 -2.324854E-001 -1.614385E+002
 990.0000     -3.230612E-001  1.797344E+002 -7.532816E+001 -8.555160E+001 -7.517541E+001 -9.020459E+001 -2.418606E-001 -1.644352E+002
1000.0000     -3.319546E-001  1.764586E+002 -7.310882E+001 -9.427267E+001 -7.274638E+001 -9.171620E+001 -2.500786E-001 -1.675141E+002
1010.0000     -3.423010E-001  1.730337E+002 -7.010148E+001 -9.275529E+001 -7.033578E+001 -9.323033E+001 -2.624103E-001 -1.707054E+002
1020.0000     -3.518376E-001  1.694426E+002 -6.791591E+001 -9.532609E+001 -6.762296E+001 -9.853159E+001 -2.712893E-001 -1.740625E+002
1030.0000     -3.610457E-001  1.657198E+002 -6.524202E+001 -1.009312E+002 -6.517388E+001 -1.007816E+002 -2.847206E-001 -1.775554E+002
1040.0000     -3.701753E-001  1.618041E+002 -6.258637E+001 -1.049520E+002 -6.258974E+001 -1.053452E+002 -2.959701E-001  1.787932E+002
1050.0000     -3.814300E-001  1.577288E+002 -6.010062E+001 -1.094695E+002 -5.998839E+001 -1.096851E+002 -3.114723E-001  1.749227E+002
1060.0000     -3.926345E-001  1.534220E+002 -5.730353E+001 -1.140244E+002 -5.736587E+001 -1.142654E+002 -3.265637E-001  1.708673E+002
1070.0000     -4.099324E-001  1.488990E+002 -5.464933E+001 -1.180273E+002 -5.472020E+001 -1.185676E+002 -3.444473E-001  1.665517E+002
1080.0000     -4.204098E-001  1.440757E+002 -5.196330E+001 -1.231061E+002 -5.195060E+001 -1.232715E+002 -3.651469E-001  1.619532E+002
1090.0000     -4.419267E-001  1.389338E+002 -4.920402E+001 -1.283399E+002 -4.920010E+001 -1.284682E+002 -3.889775E-001  1.570351E+002
1100.0000     -4.618503E-001  1.333992E+002 -4.633377E+001 -1.340312E+002 -4.637840E+001 -1.340804E+002 -4.155130E-001  1.517432E+002
1102.0000     -4.657449E-001  1.322607E+002 -4.578190E+001 -1.351086E+002 -4.578824E+001 -1.351705E+002 -4.208315E-001  1.506328E+002
1106.0000     -4.750392E-001  1.298986E+002 -4.459159E+001 -1.374950E+002 -4.460699E+001 -1.375373E+002 -4.341756E-001  1.483411E+002
1110.0000     -4.851572E-001  1.274830E+002 -4.341640E+001 -1.399257E+002 -4.344527E+001 -1.400260E+002 -4.454119E-001  1.459866E+002
1114.0000     -4.929640E-001  1.249477E+002 -4.223748E+001 -1.424906E+002 -4.224643E+001 -1.425881E+002 -4.586285E-001  1.435367E+002
1118.0000     -5.066910E-001  1.223604E+002 -4.103094E+001 -1.452077E+002 -4.107535E+001 -1.454013E+002 -4.728997E-001  1.410028E+002
1122.0000     -5.177843E-001  1.196706E+002 -3.980416E+001 -1.479828E+002 -3.983750E+001 -1.480182E+002 -4.892438E-001  1.383558E+002
1126.0000     -5.288786E-001  1.168922E+002 -3.857775E+001 -1.507711E+002 -3.860744E+001 -1.509974E+002 -5.052570E-001  1.356116E+002
1130.0000     -5.443448E-001  1.140150E+002 -3.733791E+001 -1.538202E+002 -3.737907E+001 -1.539906E+002 -5.253110E-001  1.327481E+002
1134.0000     -5.595435E-001  1.110039E+002 -3.607612E+001 -1.569691E+002 -3.609673E+001 -1.570971E+002 -5.427875E-001  1.297685E+002
1138.0000     -5.736895E-001  1.078902E+002 -3.479251E+001 -1.602072E+002 -3.482405E+001 -1.602723E+002 -5.669102E-001  1.266353E+002
1142.0000     -5.949233E-001  1.046258E+002 -3.349836E+001 -1.635987E+002 -3.352330E+001 -1.637240E+002 -5.919412E-001  1.233492E+002
1146.0000     -6.145529E-001  1.012297E+002 -3.217550E+001 -1.671644E+002 -3.220488E+001 -1.672298E+002 -6.182419E-001  1.199240E+002
1150.0000     -6.369981E-001  9.767125E+001 -3.084172E+001 -1.709440E+002 -3.087728E+001 -1.710235E+002 -6.464157E-001  1.162986E+002
1154.0000     -6.599509E-001  9.394134E+001 -2.948303E+001 -1.748880E+002 -2.951230E+001 -1.749249E+002 -6.772664E-001  1.124703E+002
1158.0000     -6.879679E-001  9.001008E+001 -2.810753E+001 -1.790392E+002 -2.813870E+001 -1.790823E+002 -7.151415E-001  1.084296E+002
1162.0000     -7.193190E-001  8.588531E+001 -2.670633E+001  1.765793E+002 -2.673853E+001  1.765603E+002 -7.567059E-001  1.041527E+002
1166.0000     -7.557442E-001  8.151807E+001 -2.528751E+001  1.719029E+002 -2.531783E+001  1.719147E+002 -8.029383E-001  9.958562E+001
1170.0000     -7.968702E-001  7.691570E+001 -2.384303E+001  1.669480E+002 -2.387441E+001  1.669675E+002 -8.562716E-001  9.468745E+001
1174.0000     -8.454789E-001  7.201644E+001 -2.238114E+001  1.616722E+002 -2.240915E+001  1.616805E+002 -9.174225E-001  8.944485E+001
1178.0000     -9.023457E-001  6.680606E+001 -2.089441E+001  1.560386E+002 -2.092545E+001  1.560604E+002 -9.938686E-001  8.380708E+001
1182.0000     -9.725331E-001  6.124712E+001 -1.939370E+001  1.499523E+002 -1.942196E+001  1.500131E+002 -1.082564E+000  7.771099E+001
1186.0000     -1.059892E+000  5.530083E+001 -1.787419E+001  1.434183E+002 -1.790193E+001  1.434795E+002 -1.190344E+000  7.107183E+001
1190.0000     -1.165937E+000  4.890492E+001 -1.634223E+001  1.363497E+002 -1.637372E+001  1.364413E+002 -1.323996E+000  6.384024E+001
1194.0000     -1.302622E+000  4.202898E+001 -1.480900E+001  1.286791E+002 -1.483533E+001  1.288082E+002 -1.488454E+000  5.593459E+001
