! Mini-Circuits								
! S2P DATA File Format								
! Type: BAND PASS FILTER								
! Model: ZX75BP-1450-S+								
! All S Parameters are in dB deg format								
! TEST CONDITIONS: INPUT POWER = 0 dBm @ Temperature = +25deg C	
# MHz S dB R 50
!Frequency        S11 dB  S11 DEG   S21 dB  S21 DEG   S12 dB  S12 DEG   S22 dB  S22 DEG
    .3000     -2.633631E-003 -5.027599E-002 -9.156357E+001 -8.709115E-001 -9.724149E+001 -1.067763E+002  2.548239E-003 -3.107399E-002
    .4000     -1.671208E-003 -7.267621E-002 -1.019962E+002  9.197291E+001 -9.501029E+001 -7.104954E+001  2.827898E-003 -5.210512E-002
    .5000     -2.533968E-003 -7.815306E-002 -1.029375E+002 -1.309916E+002 -1.031910E+002  1.224823E+002  1.762070E-003 -9.173201E-002
    .6000     -2.571196E-003 -1.008203E-001 -1.028995E+002 -3.315962E+001 -1.095068E+002 -7.245078E+001  9.285240E-004 -8.309709E-002
    .7000      3.013582E-004 -9.602717E-002 -1.083709E+002  9.888104E+001 -1.056478E+002 -4.219741E+001  2.099102E-003 -9.647454E-002
    .8000      1.565925E-005 -1.190877E-001 -1.031132E+002  5.560500E+001 -1.038404E+002  1.624373E+002  4.961626E-004 -1.076379E-001
    .9000      4.574917E-004 -1.357955E-001 -1.025570E+002 -2.544439E+001 -9.744247E+001 -7.583797E+000  8.056686E-004 -1.287120E-001
   1.0000     -5.859975E-004 -1.558276E-001 -9.336819E+001  1.753029E+002 -9.913813E+001 -1.768268E+002 -1.515964E-003 -1.413967E-001
   3.0000      1.223421E-003 -4.497816E-001 -1.066648E+002 -1.499727E+002 -1.007689E+002  1.459663E+002 -3.346752E-006 -4.191888E-001
   5.0000     -7.253835E-004 -7.575258E-001 -9.931493E+001  8.919646E+001 -1.039212E+002  4.386695E+001  1.457382E-003 -6.835641E-001
   7.0000     -1.300921E-003 -1.060318E+000 -9.943804E+001  1.298407E+002 -1.003993E+002 -9.863470E+001 -2.242943E-003 -9.584163E-001
   9.0000     -1.258627E-003 -1.365831E+000 -1.022249E+002  1.523296E+002 -9.950266E+001  1.629040E+002 -1.087407E-003 -1.237732E+000
  10.0000     -1.309103E-003 -1.523053E+000 -1.049511E+002 -5.454204E+001 -1.152264E+002 -8.176222E+001 -3.329358E-004 -1.378314E+000
  20.0000     -1.963245E-003 -3.035215E+000 -9.908462E+001  5.973336E+001 -9.346579E+001 -3.008090E+001  1.465645E-004 -2.749378E+000
  30.0000     -1.266088E-003 -4.554670E+000 -1.168438E+002 -5.399371E+001 -1.050428E+002  2.722733E+001 -1.292782E-003 -4.121207E+000
  40.0000     -3.011834E-003 -6.068544E+000 -9.906046E+001  2.510350E+001 -9.782160E+001  1.702509E+002 -3.800019E-004 -5.490251E+000
  50.0000     -3.405088E-003 -7.590410E+000 -1.033202E+002  5.270901E+001 -1.015825E+002 -1.407943E+002 -3.351810E-003 -6.847869E+000
  60.0000     -3.172071E-003 -9.102907E+000 -1.003192E+002 -3.729986E+001 -1.051836E+002 -1.138989E+002 -3.046896E-003 -8.225768E+000
  70.0000     -4.636343E-003 -1.062656E+001 -1.083707E+002 -1.607218E+002 -1.012128E+002 -9.298318E+001 -3.165910E-003 -9.590539E+000
  80.0000     -6.043303E-003 -1.214431E+001 -1.043077E+002 -5.887194E+001 -9.689293E+001 -1.278209E+002 -4.978878E-003 -1.095378E+001
  90.0000     -4.717181E-003 -1.365925E+001 -1.023376E+002 -9.255567E+001 -1.014993E+002  1.212194E+002 -3.175952E-003 -1.234380E+001
 100.0000     -5.918393E-003 -1.518401E+001 -1.020333E+002  5.160654E+001 -1.049224E+002 -1.063740E+002 -4.028431E-003 -1.370693E+001
 110.0000     -5.888553E-003 -1.669250E+001 -1.036822E+002  1.136514E+002 -1.047183E+002  2.095680E+001 -4.502006E-003 -1.508282E+001
 120.0000     -8.770351E-003 -1.822322E+001 -1.066919E+002 -1.219012E+002 -1.039578E+002 -1.004785E+002 -3.257486E-003 -1.646450E+001
 130.0000     -6.819297E-003 -1.973292E+001 -1.024828E+002  5.597363E+001 -9.829980E+001 -1.661440E+002 -6.315325E-003 -1.783873E+001
 140.0000     -7.358903E-003 -2.126917E+001 -9.513817E+001  4.427767E+001 -9.917944E+001 -1.295603E+002 -6.778973E-003 -1.921877E+001
 150.0000     -7.872292E-003 -2.277512E+001 -9.931263E+001  8.195389E+001 -1.029779E+002  1.367779E+002 -5.534820E-003 -2.059965E+001
 160.0000     -1.104699E-002 -2.431983E+001 -9.776349E+001  7.621407E+001 -1.002757E+002 -1.158263E+002 -6.388728E-003 -2.198422E+001
 170.0000     -1.149802E-002 -2.585767E+001 -9.847490E+001 -4.054804E+000 -1.083281E+002 -3.581057E+001 -6.729766E-003 -2.335672E+001
 180.0000     -1.252427E-002 -2.737827E+001 -1.104539E+002 -5.297355E+001 -1.031053E+002  1.614361E+002 -8.937038E-003 -2.474397E+001
 190.0000     -1.435886E-002 -2.891419E+001 -1.007491E+002 -1.581326E+002 -1.145960E+002 -3.326809E+001 -8.811473E-003 -2.614265E+001
 200.0000     -1.600453E-002 -3.045225E+001 -1.019382E+002  1.231252E+002 -1.061384E+002  1.341985E+002 -9.626717E-003 -2.752033E+001
 210.0000     -1.537785E-002 -3.198831E+001 -9.985667E+001  1.198407E+002 -1.015182E+002 -1.050249E+002 -8.998995E-003 -2.891564E+001
 220.0000     -1.645019E-002 -3.352779E+001 -9.878080E+001 -1.041156E+002 -9.608292E+001 -4.222077E+000 -1.014736E-002 -3.030480E+001
 230.0000     -1.802788E-002 -3.505545E+001 -1.004167E+002 -2.205537E+001 -1.019183E+002  1.109156E+002 -9.996496E-003 -3.169691E+001
 240.0000     -1.878179E-002 -3.659990E+001 -1.040731E+002 -6.354824E+001 -1.013508E+002  7.594510E+001 -1.055103E-002 -3.309250E+001
 250.0000     -2.001828E-002 -3.815498E+001 -1.017609E+002  1.606208E+002 -1.022484E+002 -8.741499E+001 -1.425176E-002 -3.449987E+001
 260.0000     -2.282647E-002 -3.970419E+001 -1.054168E+002 -3.510285E+001 -1.061801E+002  9.731645E+001 -1.250229E-002 -3.589186E+001
 270.0000     -2.327045E-002 -4.124676E+001 -1.025682E+002  2.362509E+001 -9.925634E+001  9.719250E+001 -1.260534E-002 -3.729673E+001
 280.0000     -2.611727E-002 -4.280868E+001 -1.026725E+002  9.505298E+001 -1.041304E+002  2.287675E+001 -1.396998E-002 -3.871677E+001
 290.0000     -2.607917E-002 -4.437461E+001 -1.074675E+002 -4.923171E+001 -1.057969E+002 -1.719148E+002 -1.633190E-002 -4.012019E+001
 300.0000     -3.001633E-002 -4.592982E+001 -9.715689E+001 -1.136041E+002 -1.008045E+002  6.596040E+001 -1.576251E-002 -4.152613E+001
 310.0000     -2.864990E-002 -4.749174E+001 -1.004412E+002  1.725068E+002 -1.014668E+002  8.548249E-001 -1.700550E-002 -4.295325E+001
 320.0000     -3.050000E-002 -4.905732E+001 -1.001336E+002 -2.279021E+001 -9.970716E+001  2.193166E+001 -1.685286E-002 -4.436652E+001
 330.0000     -3.348615E-002 -5.063559E+001 -9.567754E+001  6.944047E+001 -9.737478E+001  1.186768E+002 -1.726324E-002 -4.578922E+001
 340.0000     -3.576469E-002 -5.220233E+001 -1.043139E+002  6.426924E+001 -1.011222E+002  1.310721E+002 -1.933288E-002 -4.721547E+001
 350.0000     -3.712729E-002 -5.377814E+001 -1.072621E+002 -6.895015E+001 -1.073000E+002  3.630141E+001 -2.215630E-002 -4.865666E+001
 360.0000     -3.904970E-002 -5.536921E+001 -1.196409E+002  1.923819E+001 -1.018189E+002 -1.228335E+002 -1.984648E-002 -5.008569E+001
 370.0000     -4.286228E-002 -5.695494E+001 -9.730187E+001 -1.214000E+002 -1.030207E+002  1.365633E+002 -2.259141E-002 -5.153002E+001
 380.0000     -4.475147E-002 -5.855540E+001 -1.004977E+002  1.274201E+002 -9.821902E+001 -8.325560E+001 -2.175105E-002 -5.298054E+001
 390.0000     -4.495692E-002 -6.014713E+001 -1.027162E+002  1.628098E+002 -9.994980E+001  9.559637E+001 -2.408392E-002 -5.443648E+001
 400.0000     -4.683274E-002 -6.175788E+001 -9.601214E+001  2.156936E+001 -1.022380E+002  3.989075E+001 -2.529722E-002 -5.587903E+001
 410.0000     -4.946837E-002 -6.335936E+001 -1.010850E+002 -3.429474E+000 -9.499633E+001  1.912374E+001 -2.733968E-002 -5.734024E+001
 420.0000     -5.191056E-002 -6.497524E+001 -9.375066E+001  1.512290E+002 -9.329065E+001 -1.251305E+002 -2.668755E-002 -5.880194E+001
 430.0000     -5.400466E-002 -6.659367E+001 -1.047873E+002  1.250052E+002 -9.681273E+001  1.203241E+002 -3.060454E-002 -6.026745E+001
 440.0000     -5.821467E-002 -6.822069E+001 -1.044607E+002  6.700655E+001 -1.010293E+002  3.727686E+001 -3.241341E-002 -6.175421E+001
 450.0000     -5.861690E-002 -6.984601E+001 -1.019655E+002 -3.128810E+001 -9.476640E+001 -1.777696E+002 -3.228727E-002 -6.324300E+001
 460.0000     -6.134214E-002 -7.148899E+001 -9.820291E+001 -1.546649E+002 -9.877953E+001 -1.558039E+002 -3.263010E-002 -6.473038E+001
 470.0000     -6.487724E-002 -7.313507E+001 -9.636205E+001 -1.405923E+002 -1.077460E+002  1.408792E+002 -3.668081E-002 -6.621677E+001
 480.0000     -6.743476E-002 -7.477776E+001 -1.150692E+002 -8.970013E+001 -1.069976E+002  1.364974E+002 -3.670156E-002 -6.773431E+001
 490.0000     -6.901596E-002 -7.644685E+001 -1.122540E+002  1.095234E+002 -1.029121E+002 -6.091014E+001 -3.847997E-002 -6.923456E+001
 500.0000     -7.281948E-002 -7.809231E+001 -1.005856E+002  1.500840E+002 -1.055302E+002  1.222613E+002 -4.023551E-002 -7.077488E+001
 510.0000     -7.558618E-002 -7.978073E+001 -1.132145E+002  1.495666E+002 -1.009750E+002 -1.397255E+002 -4.280124E-002 -7.228969E+001
 520.0000     -7.657404E-002 -8.145514E+001 -1.069543E+002 -1.146344E+002 -9.941248E+001 -4.719263E+001 -4.488279E-002 -7.382838E+001
 530.0000     -8.005542E-002 -8.314396E+001 -1.006504E+002  1.467782E+002 -9.346642E+001 -1.725092E+002 -4.339363E-002 -7.537552E+001
 540.0000     -8.205633E-002 -8.484181E+001 -1.000779E+002 -1.649834E+002 -9.661606E+001  1.182917E+002 -4.638562E-002 -7.693205E+001
 550.0000     -8.531959E-002 -8.653619E+001 -1.124879E+002 -1.740543E+002 -1.058353E+002  1.446223E+002 -4.926033E-002 -7.848183E+001
 560.0000     -8.882199E-002 -8.827099E+001 -9.957471E+001  1.724782E+002 -1.015067E+002  8.625957E+001 -5.073442E-002 -8.005908E+001
 570.0000     -9.300808E-002 -8.998106E+001 -1.020252E+002 -5.592293E+000 -1.034038E+002 -1.560750E+002 -5.220615E-002 -8.164759E+001
 580.0000     -9.508127E-002 -9.172430E+001 -1.078563E+002 -1.524073E+002 -1.035072E+002  1.121512E+002 -5.434644E-002 -8.322676E+001
 590.0000     -9.700871E-002 -9.347029E+001 -1.112014E+002  1.900523E+001 -9.858356E+001 -1.284273E+002 -5.746052E-002 -8.481836E+001
 600.0000     -1.004988E-001 -9.521534E+001 -9.676791E+001 -1.368127E+001 -1.024618E+002  9.316847E+001 -5.684704E-002 -8.644025E+001
 610.0000     -1.043968E-001 -9.698446E+001 -9.403491E+001  1.780249E+002 -1.026624E+002  7.602946E+001 -5.973272E-002 -8.804140E+001
 620.0000     -1.073071E-001 -9.876830E+001 -9.503560E+001 -9.292947E+001 -9.876329E+001  3.014739E+001 -6.259057E-002 -8.967250E+001
 630.0000     -1.099974E-001 -1.005571E+002 -1.051443E+002  4.598777E+001 -9.488764E+001  7.322124E+001 -6.444512E-002 -9.129930E+001
 640.0000     -1.123859E-001 -1.023532E+002 -9.874537E+001 -3.731024E+001 -1.067620E+002  1.067149E+002 -6.821245E-002 -9.297427E+001
 650.0000     -1.187564E-001 -1.041760E+002 -1.007946E+002  1.270660E+002 -9.874619E+001 -1.511003E+002 -7.037972E-002 -9.462958E+001
 660.0000     -1.206421E-001 -1.060121E+002 -9.833299E+001  5.216290E+001 -9.471870E+001 -1.418619E+002 -7.090491E-002 -9.633320E+001
 670.0000     -1.256640E-001 -1.078547E+002 -1.045019E+002 -1.122456E+002 -9.625901E+001  1.074283E+002 -7.627035E-002 -9.802020E+001
 680.0000     -1.265702E-001 -1.097085E+002 -9.329955E+001 -1.185832E+002 -9.881904E+001 -1.520306E+002 -7.693493E-002 -9.972739E+001
 690.0000     -1.301461E-001 -1.115888E+002 -9.341171E+001 -1.262290E+002 -9.918630E+001  1.411065E+002 -7.824203E-002 -1.014579E+002
 700.0000     -1.336928E-001 -1.134841E+002 -1.057101E+002  1.734729E+002 -1.016022E+002  1.351234E+002 -8.269630E-002 -1.031960E+002
 710.0000     -1.370773E-001 -1.153819E+002 -1.117640E+002  5.413471E+001 -9.824171E+001 -9.521514E+000 -8.686771E-002 -1.049655E+002
 720.0000     -1.422707E-001 -1.173240E+002 -1.126765E+002  1.208641E+002 -1.008538E+002 -1.776177E+002 -8.758982E-002 -1.067533E+002
 730.0000     -1.466940E-001 -1.192685E+002 -9.553243E+001  1.784178E+002 -9.182777E+001  1.646527E+002 -8.940828E-002 -1.085412E+002
 740.0000     -1.489266E-001 -1.212395E+002 -1.010957E+002  1.683251E+002 -9.784938E+001  1.268028E+002 -9.231952E-002 -1.103611E+002
 750.0000     -1.517257E-001 -1.232386E+002 -1.029038E+002 -1.458957E+002 -9.965636E+001 -1.091515E+002 -9.595113E-002 -1.122030E+002
 760.0000     -1.560937E-001 -1.252456E+002 -1.116091E+002 -1.132614E+002 -9.777249E+001 -1.166832E+002 -9.892608E-002 -1.140595E+002
 770.0000     -1.595072E-001 -1.272677E+002 -9.440700E+001  1.529697E+002 -9.388615E+001  1.372338E+002 -1.033800E-001 -1.159605E+002
 780.0000     -1.649639E-001 -1.293458E+002 -1.007477E+002 -1.259911E+002 -9.604696E+001  1.619106E+002 -1.053537E-001 -1.178674E+002
 790.0000     -1.681383E-001 -1.314209E+002 -9.984921E+001 -1.012026E+002 -9.708500E+001  8.961549E+001 -1.096599E-001 -1.198045E+002
 800.0000     -1.716097E-001 -1.335349E+002 -9.419307E+001  1.598636E+002 -9.183183E+001  1.268876E+002 -1.143902E-001 -1.217648E+002
 810.0000     -1.761407E-001 -1.356750E+002 -1.004653E+002 -1.592706E+002 -1.019597E+002 -7.803676E+000 -1.168501E-001 -1.237556E+002
 820.0000     -1.817355E-001 -1.378467E+002 -9.975321E+001  1.309509E+002 -9.740657E+001  8.382664E+001 -1.189013E-001 -1.257683E+002
 830.0000     -1.838961E-001 -1.400568E+002 -9.463316E+001  9.549285E+001 -1.073983E+002  4.073404E+001 -1.224583E-001 -1.278296E+002
 840.0000     -1.876994E-001 -1.422988E+002 -1.019699E+002  1.392668E+002 -9.569432E+001  8.850995E+001 -1.259998E-001 -1.299161E+002
 850.0000     -1.925735E-001 -1.445600E+002 -1.038845E+002 -5.243061E+001 -1.100846E+002 -9.053899E+001 -1.311390E-001 -1.320314E+002
 860.0000     -1.980525E-001 -1.468660E+002 -1.032938E+002  7.183672E-002 -9.536610E+001  3.602174E+001 -1.370204E-001 -1.341954E+002
 870.0000     -2.036417E-001 -1.492385E+002 -9.327384E+001 -1.080725E+002 -1.052265E+002  6.637801E+001 -1.392680E-001 -1.363904E+002
 880.0000     -2.062074E-001 -1.516405E+002 -1.048542E+002 -8.623580E+001 -1.056511E+002  5.525826E+001 -1.449315E-001 -1.386317E+002
 890.0000     -2.117453E-001 -1.540870E+002 -9.449094E+001  1.131269E+002 -1.046922E+002 -2.260588E+000 -1.492206E-001 -1.409194E+002
 900.0000     -2.156746E-001 -1.565807E+002 -1.031166E+002  1.349579E+002 -9.863741E+001 -8.361883E+001 -1.553955E-001 -1.432524E+002
 910.0000     -2.202037E-001 -1.591252E+002 -9.923644E+001 -6.516511E+001 -1.016496E+002 -9.351153E+001 -1.590196E-001 -1.456581E+002
 920.0000     -2.269941E-001 -1.617349E+002 -9.266082E+001 -3.761705E+001 -9.538497E+001 -8.743085E+001 -1.643679E-001 -1.481011E+002
 930.0000     -2.319761E-001 -1.643965E+002 -9.364625E+001 -1.200067E+002 -1.112704E+002  2.407252E+001 -1.701296E-001 -1.506195E+002
 940.0000     -2.381826E-001 -1.671310E+002 -8.571407E+001 -8.447092E+001 -8.746539E+001 -8.161903E+001 -1.786227E-001 -1.531991E+002
 950.0000     -2.452702E-001 -1.699457E+002 -8.389590E+001 -7.453205E+001 -8.806027E+001 -8.599176E+001 -1.828990E-001 -1.558645E+002
 960.0000     -2.494291E-001 -1.728357E+002 -8.369581E+001 -7.851364E+001 -8.301357E+001 -9.606406E+001 -1.897575E-001 -1.585790E+002
 970.0000     -2.558292E-001 -1.758142E+002 -8.004757E+001 -7.994124E+001 -8.105170E+001 -7.564738E+001 -1.974023E-001 -1.614046E+002
 980.0000     -2.607434E-001 -1.788811E+002 -7.717888E+001 -8.610343E+001 -7.810350E+001 -8.772298E+001 -2.059450E-001 -1.643125E+002
 990.0000     -2.682765E-001  1.779595E+002 -7.570432E+001 -8.748003E+001 -7.655537E+001 -8.880873E+001 -2.160471E-001 -1.673408E+002
1000.0000     -2.748755E-001  1.746831E+002 -7.285585E+001 -8.998590E+001 -7.265928E+001 -9.311893E+001 -2.223315E-001 -1.704518E+002
1010.0000     -2.834544E-001  1.712882E+002 -7.051574E+001 -9.671694E+001 -7.056360E+001 -9.474026E+001 -2.333714E-001 -1.736827E+002
1020.0000     -2.920551E-001  1.677417E+002 -6.773655E+001 -9.853209E+001 -6.788465E+001 -1.002215E+002 -2.428391E-001 -1.770793E+002
1030.0000     -2.996949E-001  1.640513E+002 -6.537492E+001 -1.016505E+002 -6.544314E+001 -1.029679E+002 -2.534175E-001  1.793898E+002
1040.0000     -3.100310E-001  1.602014E+002 -6.263270E+001 -1.063708E+002 -6.287070E+001 -1.062469E+002 -2.661377E-001  1.757090E+002
1050.0000     -3.176266E-001  1.561682E+002 -6.033455E+001 -1.103059E+002 -6.046403E+001 -1.119334E+002 -2.813778E-001  1.718337E+002
1060.0000     -3.296888E-001  1.519143E+002 -5.767908E+001 -1.158332E+002 -5.771476E+001 -1.154231E+002 -2.951576E-001  1.677537E+002
1070.0000     -3.432220E-001  1.474416E+002 -5.510013E+001 -1.198875E+002 -5.513675E+001 -1.195953E+002 -3.107238E-001  1.634185E+002
1080.0000     -3.535790E-001  1.426826E+002 -5.233857E+001 -1.245028E+002 -5.241602E+001 -1.248031E+002 -3.306515E-001  1.588294E+002
1090.0000     -3.703084E-001  1.376350E+002 -4.959280E+001 -1.297561E+002 -4.959358E+001 -1.295661E+002 -3.493755E-001  1.539056E+002
1100.0000     -3.878074E-001  1.322306E+002 -4.678177E+001 -1.353003E+002 -4.682540E+001 -1.354148E+002 -3.742540E-001  1.486244E+002
1102.0000     -3.915147E-001  1.310975E+002 -4.620814E+001 -1.364409E+002 -4.624806E+001 -1.367115E+002 -3.792018E-001  1.475213E+002
1106.0000     -4.000980E-001  1.287907E+002 -4.508155E+001 -1.386115E+002 -4.509364E+001 -1.389771E+002 -3.908299E-001  1.452569E+002
1110.0000     -4.080068E-001  1.264224E+002 -4.391079E+001 -1.411926E+002 -4.393626E+001 -1.413406E+002 -4.004895E-001  1.429210E+002
1114.0000     -4.122750E-001  1.239589E+002 -4.272261E+001 -1.436257E+002 -4.274654E+001 -1.439226E+002 -4.132033E-001  1.404866E+002
1118.0000     -4.258065E-001  1.214287E+002 -4.150750E+001 -1.464026E+002 -4.155331E+001 -1.465778E+002 -4.253227E-001  1.379865E+002
1122.0000     -4.345897E-001  1.187919E+002 -4.032653E+001 -1.490349E+002 -4.033773E+001 -1.491624E+002 -4.393769E-001  1.353605E+002
1126.0000     -4.461343E-001  1.160823E+002 -3.909238E+001 -1.518953E+002 -3.911696E+001 -1.520186E+002 -4.550747E-001  1.326580E+002
1130.0000     -4.592887E-001  1.132628E+002 -3.786477E+001 -1.548269E+002 -3.788924E+001 -1.549456E+002 -4.705115E-001  1.298437E+002
1134.0000     -4.729202E-001  1.103292E+002 -3.661274E+001 -1.578650E+002 -3.663654E+001 -1.579854E+002 -4.861544E-001  1.268947E+002
1138.0000     -4.845046E-001  1.072923E+002 -3.533429E+001 -1.610435E+002 -3.536560E+001 -1.611469E+002 -5.080787E-001  1.238199E+002
1142.0000     -5.025933E-001  1.041152E+002 -3.405660E+001 -1.642900E+002 -3.408349E+001 -1.644138E+002 -5.293913E-001  1.206229E+002
1146.0000     -5.184976E-001  1.008115E+002 -3.274902E+001 -1.678103E+002 -3.277802E+001 -1.678908E+002 -5.512055E-001  1.172527E+002
1150.0000     -5.371634E-001  9.734734E+001 -3.141826E+001 -1.714513E+002 -3.145062E+001 -1.714734E+002 -5.762575E-001  1.137279E+002
1154.0000     -5.575299E-001  9.371764E+001 -3.007692E+001 -1.752340E+002 -3.010291E+001 -1.752942E+002 -6.033067E-001  1.099838E+002
1158.0000     -5.802056E-001  8.990238E+001 -2.870752E+001 -1.792289E+002 -2.873965E+001 -1.793155E+002 -6.340204E-001  1.060454E+002
1162.0000     -6.052262E-001  8.589662E+001 -2.731618E+001  1.765120E+002 -2.735150E+001  1.764681E+002 -6.669599E-001  1.018872E+002
1166.0000     -6.358498E-001  8.168253E+001 -2.591112E+001  1.720395E+002 -2.593989E+001  1.720063E+002 -7.080528E-001  9.745246E+001
1170.0000     -6.708674E-001  7.722512E+001 -2.447967E+001  1.672518E+002 -2.450880E+001  1.672494E+002 -7.527688E-001  9.272488E+001
1174.0000     -7.102770E-001  7.248797E+001 -2.302531E+001  1.621776E+002 -2.305478E+001  1.621927E+002 -8.038738E-001  8.766727E+001
1178.0000     -7.569924E-001  6.746980E+001 -2.154715E+001  1.567589E+002 -2.157763E+001  1.567770E+002 -8.657433E-001  8.223315E+001
1182.0000     -8.142651E-001  6.210181E+001 -2.005413E+001  1.509313E+002 -2.008166E+001  1.509835E+002 -9.389352E-001  7.638712E+001
1186.0000     -8.867105E-001  5.637893E+001 -1.853585E+001  1.446999E+002 -1.856396E+001  1.447379E+002 -1.028568E+000  7.002586E+001
1190.0000     -9.735141E-001  5.020566E+001 -1.700430E+001  1.379437E+002 -1.703373E+001  1.380258E+002 -1.138205E+000  6.313522E+001
1194.0000     -1.087920E+000  4.357712E+001 -1.546468E+001  1.306228E+002 -1.549030E+001  1.307389E+002 -1.272746E+000  5.560247E+001
