#  HZ   S   RI   R     50.00 
! Rohde & Schwarz Vector Network Analyzer 
! Rohde-Schwarz,ZNB8-4Port,REDACTED,3.12
! Created: UTC 3/24/2026, 2:56:31 PM
! ZX75BP-1450+
! freq[Hz]                re:S11                  im:S11                  re:S21                  im:S21                  re:S12                  im:S12                  re:S22                  im:S22
 1.000000000000000E5     1.002216312699234      -1.233779852500119E-2    1.582226996337834E-7    3.354096134323736E-7   -3.074528181178343E-7   -6.518296550188960E-7    1.001953258219872      -8.876846110349243E-3
 4.259950000000000E7     8.035279418047983E-2   -9.917709509094081E-1   -8.274063815471036E-7   -4.516790410669188E-7    4.175990396103611E-7    9.812385044832883E-7    8.432485538592455E-2   -9.917714044932761E-1
 8.509900000000000E7    -9.670727162301156E-1   -1.683761257551208E-1    8.768956652154954E-7    6.308674670450808E-7    1.008476780762553E-6   -2.020195035493671E-7   -9.664698158401601E-1   -1.744081231131377E-1
 1.275985000000000E8    -2.603317408801397E-1    9.356311508314926E-1   -2.589055414305695E-7   -9.604213981843019E-8   -1.892846820619105E-7   -3.426496132271841E-7   -2.674031323267647E-1    9.341158829350364E-1
 1.700980000000000E8     9.069321196847849E-1    3.466439715735481E-1   -6.168439448639324E-7   -4.772109821179216E-7   -2.882665611428292E-7    1.665705625170646E-7    9.025258142301865E-1    3.580912762831473E-1
 2.125975000000000E8     4.271789265358224E-1   -8.715230557788014E-1    2.846673056960246E-7    2.435183014755789E-7   -4.893184747967494E-7    4.068370575896233E-7    4.442798293497502E-1   -8.624203680850144E-1
 2.550970000000000E8    -8.168672154328687E-1   -5.092759635639622E-1   -1.695569063175857E-6   -1.689494175933208E-7   -4.029303323770658E-7   -4.184924501173362E-7   -8.043862674445491E-1   -5.282156141132254E-1
 2.975965000000000E8    -5.924291210125392E-1    7.488629770062805E-1    5.951090810306544E-7    3.434811095819147E-7   -4.526125652383565E-7    8.136229337401660E-7   -6.076737429325183E-1    7.367611700902006E-1
 3.400960000000000E8     6.794640498186330E-1    6.694505300897960E-1    3.394977554012152E-7    1.508942645057181E-7   -5.688188898746048E-7   -1.865243406638538E-7    6.660783623755463E-1    6.828468886615378E-1
 3.825955000000000E8     7.328055181977099E-1   -6.125045956788389E-1   -4.770991695121682E-7   -8.553878639945745E-7    8.716051246097850E-8   -1.394104040963835E-6    7.509898602460866E-1   -5.893755699887261E-1
 4.250950000000000E8    -5.386540395718752E-1   -7.824886756617668E-1   -1.002384817689101E-6    1.633092726303117E-6   -1.148855323823348E-6    1.039293525687618E-6   -4.977581227476201E-1   -8.088222177860985E-1
 4.675945000000000E8    -8.276807615977818E-1    4.513239604638609E-1    4.134420686683828E-8    1.654903516681364E-6    1.687441648121972E-7    1.467537288398669E-6   -8.556989035154442E-1    3.957687027306526E-1
 5.100940000000000E8     3.550988428303773E-1    8.722776489926749E-1    2.695136509306690E-6   -4.447636818355605E-7    2.129354847115059E-6   -1.691464427181328E-6    2.950047466289786E-1    8.944250704621686E-1
 5.525935000000000E8     9.092603643664802E-1   -2.570533668490174E-1   -4.302937288497419E-7   -3.084008802107820E-6   -1.061292873036807E-6   -2.571085855316190E-6    9.235919833616203E-1   -1.964142121126033E-1
 5.950930000000000E8    -1.612137607814417E-1   -9.285073519994774E-1   -3.031703477175409E-6    5.178430985666039E-7   -2.684098352469647E-6    1.691488818226737E-6   -9.321636208783232E-2   -9.374178359327247E-1
 6.375925000000000E8    -9.323200624220102E-1    6.963282800944355E-2    1.525035247413419E-7    3.559050777050826E-6    2.864004407539658E-8    4.944700399098488E-6   -9.344865411875500E-1   -1.494383532304847E-2
 6.800920000000000E8    -2.129674918410193E-2    9.328080285565652E-1    5.453023595338328E-6   -3.532542127949448E-7    5.500286335541473E-6   -2.569240121991225E-7   -1.203262216732639E-1    9.245985636821992E-1
 7.225915000000000E8     9.307089298570432E-1    1.139393850551568E-1    8.762118106146284E-7   -6.119849157272625E-6    3.908506994040740E-7   -6.533807011469117E-6    9.113328966113857E-1    2.156156319631129E-1
 7.650910000000000E8     2.022901919009451E-1   -9.151922464724955E-1   -7.326484345780595E-6   -2.006062159703718E-6   -7.533006635924657E-6   -2.190718713279256E-6    2.988985770921481E-1   -8.873180995268617E-1
 8.075905000000000E8    -8.866087877590576E-1   -2.781048704112432E-1   -2.971457686688916E-6    6.502905215182514E-6   -2.703175289478187E-6    8.527448195228662E-6   -8.500949140000369E-1   -3.749383663799761E-1
 8.500900000000000E8    -3.389431213694791E-1    8.607759054154156E-1    5.272091761907865E-6    1.892907329918110E-6    6.609534893599600E-6    2.914724097711771E-6   -4.467965238340956E-1    8.108391008358717E-1
 8.925895000000000E8     8.451551685696856E-1    3.843528189647119E-1   -8.259643544521681E-7    3.402922879185175E-7   -1.205718889432733E-6    7.257904239822111E-7    7.790929574991613E-1    5.063155684309496E-1
 9.350890000000000E8     4.084371837366691E-1   -8.335695723991394E-1    2.529285492043536E-5    1.295000844452447E-5    2.552497693833551E-5    1.246338225736666E-5    5.385512236770680E-1   -7.564303607870345E-1
 9.775885000000000E8    -8.249352392735950E-1   -4.044082253474876E-1    5.563140140156780E-5   -1.079099719403835E-4    5.457385796174549E-5   -1.080604384972348E-4   -7.452533604405729E-1   -5.397559140162287E-1
 1.020088000000000E9    -3.661247158414921E-1    8.323489192712676E-1   -4.315456047146082E-4   -1.949498575702984E-4   -4.287421948275279E-4   -1.933176055339230E-4   -5.133630350931757E-1    7.543498899122449E-1
 1.062587500000000E9     8.643651895933104E-1    2.693636571535894E-1   -4.508100492841830E-4    1.650315810108512E-3   -4.492469821073266E-4    1.647182048147543E-3    7.969345716353409E-1    4.365925126290192E-1
 1.105087000000000E9     6.384327277018331E-2   -8.883586868647959E-1    7.039328736528727E-3    6.815403501723421E-4    7.092955120742355E-3    6.492982309002349E-4    2.331717695811289E-1   -8.621924397542108E-1
 1.147586500000000E9    -8.036868321394351E-1    2.930992632978437E-1   -1.521423240789197E-2   -3.223858918735151E-2   -1.538800623248983E-2   -3.200130489695641E-2   -8.328904624645714E-1    1.867619846219627E-1
 1.190086000000000E9     7.350908502907918E-1    2.954205394024026E-1   -4.331511550869271E-2    1.731680530237007E-1   -4.198147781504871E-2    1.739792937190189E-1    7.342874407424479E-1    2.620487209394211E-1
 1.232585500000000E9    -3.738676268149487E-1   -1.410215119735722E-1   -1.975861834059930E-3   -6.672952942647586E-1   -2.130964325043070E-3   -6.706789960959129E-1   -3.895386389578167E-1   -8.383516199049174E-3
 1.275085000000000E9    -2.464081547494351E-2   -8.723806646520163E-3    3.754785695294004E-2    8.091298140838517E-1    4.207273416546598E-2    8.104373967600061E-1   -1.471767217322188E-2    1.154128175069715E-2
 1.317584500000000E9     7.655494445341121E-2    3.232535340789219E-2    3.261951300756492E-1   -7.578167120817900E-1    3.216412484553074E-1   -7.603393858498410E-1    8.669559999282568E-2    3.614575941476084E-3
 1.360084000000000E9     4.355541741411698E-2    5.298992118518535E-2   -7.199320215408163E-1    4.140256413334095E-1   -7.182698140415820E-1    4.188470285320608E-1    5.167968316709372E-2    4.573180712988899E-2
 1.402583500000000E9     1.249495389412996E-2   -1.923893819876749E-1    7.931015618930487E-1    2.007747458221837E-1    7.943798201407268E-1    1.950996136124831E-1    1.557984203454271E-2   -1.944765971348271E-1
 1.445083000000000E9    -1.607465938123294E-1    9.864366770157719E-2   -3.803650593787546E-1   -7.273698839988142E-1   -3.849627795021069E-1   -7.238750258663731E-1   -1.906481709252650E-1    5.450896663435344E-2
 1.487582500000000E9     7.239838691173775E-2   -2.274943560510744E-2   -2.927521899383793E-1    7.768409633092543E-1   -2.935930834951905E-1    7.781704534261739E-1    2.701390227486703E-2    1.051911896437245E-1
 1.530082000000000E9     6.562234056346908E-2    2.919346924915177E-1    7.209645249197001E-1   -2.910267049099357E-1    7.201590001390826E-1   -3.036281967345683E-1    1.971570876003615E-1    2.360665118177952E-1
 1.572581500000000E9     1.184252141001466E-1   -2.274012281791220E-1   -7.142386006620771E-1   -3.477942824311775E-1   -7.125702198448589E-1   -3.427635379749820E-1    5.627082617153450E-2   -2.639755464786753E-1
 1.615081000000000E9     1.365707476862659E-1   -2.733279665908043E-1    4.778857567611060E-1    5.574522934712837E-1    4.817809406594785E-1    5.533755445943309E-1    1.360298498521653E-1   -2.736000500715329E-1
 1.657580500000000E9    -7.656876579789348E-1    2.405643092901024E-1   -5.905205709754092E-2   -2.643114578506275E-1   -6.016301265930364E-2   -2.642640545407118E-1   -7.723116188553221E-1    2.251660127485867E-1
 1.700080000000000E9     5.287947334517242E-1    7.001573409332583E-1   -9.311227460803685E-2    5.096919474686636E-2   -9.323007864362866E-2    5.193239861348006E-2    4.858175464330590E-1    7.319839026570896E-1
 1.742579500000000E9     6.175594202848574E-1   -6.460776564786587E-1    3.416328974798927E-2    4.089702717290019E-2    3.477473711956845E-2    4.041712215906640E-2    6.766459269077617E-1   -5.845763616686706E-1
 1.785079000000000E9    -7.068586206376494E-1   -5.426553075947882E-1    1.854686056373933E-2   -2.013361172052029E-2    1.827317747766287E-2   -2.018357299380117E-2   -6.329814301018566E-1   -6.307590645100718E-1
 1.827578500000000E9    -5.064826670158388E-1    7.316119057844765E-1   -1.123010547795184E-2   -9.506320473766259E-3   -1.128346215163115E-2   -9.473833251097782E-3   -6.204337243414868E-1    6.441592038672206E-1
 1.870078000000000E9     7.399824105174048E-1    4.991326455229168E-1   -5.623102949335552E-3    6.286958666324060E-3   -5.599201903221549E-3    6.399997638376365E-3    6.370096267770649E-1    6.327829706091587E-1
 1.912577500000000E9     4.851406540210041E-1   -7.441510909410819E-1    3.938486416497554E-3    3.517513267689325E-3    4.014956406539275E-3    3.441458671955877E-3    6.306673297169585E-1   -6.345299797485816E-1
 1.955077000000000E9    -7.447100316854961E-1   -4.646033243867698E-1    1.778174078568015E-3   -2.419116406268546E-3    1.737912674788933E-3   -2.413980398620932E-3   -6.362527290879273E-1   -6.175514209545249E-1
 1.997576500000000E9    -4.582715770363879E-1    7.393839368707313E-1   -1.170068272317980E-3   -9.272323996860764E-4   -1.172771453449867E-3   -9.308437726402419E-4   -6.221006946603329E-1    6.248202421532357E-1
 2.040076000000000E9     7.358123873438412E-1    4.577984882899107E-1   -5.353754898760003E-4    5.588157135405132E-4   -5.308546087870167E-4    5.776624750521701E-4    6.050506380375756E-1    6.374624286571672E-1
 2.082575500000000E9     4.483329348767645E-1   -7.360281285246953E-1    2.387052433630783E-4    2.063457563677646E-4    2.451718781202319E-4    2.003458439341281E-4    6.340899982841807E-1   -5.991561024900878E-1
 2.125075000000000E9    -7.288664087191724E-1   -4.482044930441069E-1    3.205278659727834E-5   -2.454921178177616E-5    3.151194768260652E-5   -2.526138014962953E-5   -6.042242430970872E-1   -6.185649206058047E-1
 2.167574500000000E9    -4.751279479501553E-1    7.055457790789426E-1    6.497322185648090E-5    4.732236512354652E-5    6.588873220423620E-5    4.637290064195986E-5   -6.235272684423201E-1    5.927581541729987E-1
 2.210074000000000E9     6.789421760311013E-1    5.070768893058427E-1    8.089212549273441E-5   -9.031660906577108E-5    7.949401085816286E-5   -9.244287372871707E-5    5.638374010923898E-1    6.468427538964465E-1
 2.252573500000000E9     5.233572090264192E-1   -6.639395688809090E-1   -8.482315308865376E-5   -8.171832486941271E-5   -8.634325152470341E-5   -8.072799256540029E-5    6.642795317336021E-1   -5.383778585895345E-1
 2.295073000000000E9    -6.445318569980489E-1   -5.469540748575752E-1   -6.485106193950720E-5    6.463237989782804E-5   -6.396943375115847E-5    6.467437724371294E-5   -5.156905136264222E-1   -6.773965547398518E-1
 2.337572500000000E9    -5.990001475529831E-1    5.959905649340114E-1    4.122049248706024E-5    4.830409759903365E-5    4.165950876191227E-5    4.855823054945230E-5   -7.008132007530802E-1    4.772574083183231E-1
 2.380072000000000E9     5.297857048850408E-1    6.570043305910677E-1    4.376783768739394E-5   -2.891420865588323E-5    4.292763291236261E-5   -3.035252452123539E-5    4.288591879308462E-1    7.290118043238354E-1
 2.422571500000000E9     6.955957409703376E-1   -4.765263543599177E-1   -3.074977023146799E-5   -4.805981703433478E-5   -3.167615364374996E-5   -4.729796343481629E-5    7.513469530166917E-1   -3.880617647208787E-1
 2.465071000000000E9    -4.346555673816005E-1   -7.239618969674169E-1   -5.668258917378644E-5    3.498214417389880E-5   -5.630479764057499E-5    3.521830812556569E-5   -3.474336468283092E-1   -7.719602959573924E-1
 2.507570500000000E9    -7.598116012636801E-1    3.720392975693838E-1    2.834244506645184E-5    6.543111946919680E-5    2.873056059822773E-5    6.544503437641485E-5   -7.935806943986905E-1    2.903211459688897E-1
 2.550070000000000E9     2.853184271341224E-1    7.971368327016967E-1    5.186389195645710E-5   -1.092539202073255E-5    5.187335562450216E-5   -1.189196575953207E-5    2.313688546623174E-1    8.097162577577828E-1
 2.592569500000000E9     8.193707832110061E-1   -2.102607683751671E-1    1.542332908450606E-6   -4.752019083301666E-6    7.464085251592449E-7   -4.507108861151381E-6    8.140434255701617E-1   -2.039653426624747E-1
 2.635069000000000E9    -1.835817369099511E-1   -8.191538018540850E-1   -1.546325121925721E-4    1.004714831633303E-4   -1.538064211031485E-4    1.027773562953787E-4   -2.401097646587685E-1   -7.869511626198824E-1
 2.677568500000000E9    -6.191619382182739E-1    3.105722518619946E-1   -2.073717796345984E-2    2.036703100488052E-2   -2.031928113498993E-2    2.045035229739944E-2   -1.489700622374310E-1    2.702462217116388E-1
 2.720068000000000E9    -2.676229221293022E-1    7.056597405914843E-1   -1.021737928087356E-1   -5.338037368558516E-2   -1.034557760625713E-1   -5.212538878920986E-2   -3.806081792250001E-1    6.643292382360438E-1
 2.762567500000000E9     4.078097538516136E-1    7.417904630978965E-2    2.620948888486603E-1    2.570221638188999E-1    2.667411003047781E-1    2.507672855405371E-1    5.025923615605714E-1    2.151113142221699E-1
 2.805067000000000E9     5.437711426522465E-1   -5.412097414792920E-1   -1.347051077502273E-1   -1.722761390885321E-1   -1.369037456219453E-1   -1.698676482415326E-1    5.226612848526060E-1   -5.754368164728577E-1
 2.847566500000000E9    -5.922104868172332E-1   -5.459807594181633E-1   -1.278546358723489E-1    1.514617310515046E-1   -1.257320525054276E-1    1.539591571430552E-1   -6.137160075000586E-1   -5.133724216910216E-1
 2.890066000000000E9    -5.029721857528863E-1    5.651039610260085E-1    2.514942857478682E-1    1.536222998436078E-1    2.540030929567033E-1    1.480669997974713E-1   -4.194545506260710E-1    5.933775081054105E-1
 2.932565500000000E9     2.550839673357125E-1    3.714489547172512E-1   -1.132545504028540E-1   -5.266091678632446E-1   -1.196952007864272E-1   -5.275364433324303E-1    1.658908217212340E-1    1.217281102186469E-1
 2.975065000000000E9     6.914778076480114E-1   -1.973128592403796E-3   -1.690604290779387E-1    3.338968393691502E-1   -1.602040814515905E-1    3.368677561439211E-1    5.982617899638828E-1    2.143926128621561E-1
 3.017564500000000E9     3.992457068441275E-2   -8.007190562291948E-1    2.279762108336642E-1    6.489058292046045E-2    2.280006646517231E-1    6.084905370583575E-2    1.953693484627250E-1   -7.570267407812339E-1
 3.060064000000000E9    -8.179865231623554E-1   -1.171804366719910E-1    5.868775551291670E-2   -1.791492639413459E-1    5.649689525637704E-2   -1.799541621066540E-1   -7.794685558625883E-1   -2.383652578877919E-1
 3.102563500000000E9    -2.140131975329715E-1    8.031989545158914E-1   -1.616869659470091E-1   -6.734136864227479E-2   -1.628464327848482E-1   -6.525876752169070E-2   -3.231533959097856E-1    7.568183834758637E-1
 3.145063000000000E9     7.741057318265971E-1    3.131074615466130E-1   -8.141472707708240E-2    1.557165506100708E-1   -7.894599044203451E-2    1.563794074658193E-1    7.137709935102683E-1    4.209427243906683E-1
 3.187562500000000E9     4.066347096811494E-1   -7.314573810226906E-1    1.581767704061948E-1    1.017350766608298E-1    1.582421605627503E-1    9.973002355280676E-2    5.101097772889835E-1   -6.569045799816902E-1
 3.230062000000000E9    -6.713417262714808E-1   -4.846453169689414E-1    1.296631481687103E-1   -1.666287646743833E-1    1.281803767186784E-1   -1.681126204546752E-1   -5.859422474852710E-1   -5.761458390230576E-1
 3.272561500000000E9    -5.286411286292194E-1    5.993103681796137E-1   -1.887152764119268E-1   -1.756469555760211E-1   -1.927849060207784E-1   -1.729992711086028E-1   -6.062292381522919E-1    5.111298591442490E-1
 3.315061000000000E9     5.235714398153208E-1    5.159166192393950E-1   -2.361456452445573E-1    2.572083380297340E-1   -2.303875865747570E-1    2.618288780014101E-1    4.392351796618504E-1    5.879817451916152E-1
 3.357560500000000E9     4.089181293058334E-1   -4.229919115525851E-1    4.051381808551787E-1    2.625328073055960E-1    4.083886900933396E-1    2.552443960431914E-1    4.858626400177811E-1   -3.485023055492272E-1
 3.400060000000000E9    -1.173279991792264E-1   -1.960301134645481E-1    1.133559501532999E-1   -6.108212580640504E-1    1.020633567122526E-1   -6.135653985276464E-1   -7.915009778036643E-2   -2.670641891229210E-1
 3.442559500000000E9    -3.026073722127408E-1   -3.296968770408908E-1   -5.280484854594624E-1    1.577876822159500E-1   -5.241553909521270E-1    1.688804046981222E-1   -3.202436353416590E-1   -3.429838225502401E-1
 3.485059000000000E9    -4.839355773297521E-1    4.574031945202821E-1    1.964808905033570E-1    3.616938169871215E-1    2.038241584165888E-1    3.572159538935690E-1   -5.038028505613410E-1    4.391448471488493E-1
 3.527558500000000E9     4.922630090565438E-1    5.667541888079807E-1    2.724186703864598E-1   -1.621079850630451E-1    2.679384175414055E-1   -1.689396484051119E-1    4.579353358613750E-1    5.960008394731490E-1
 3.570058000000000E9     6.409908844678743E-1   -4.656380769002460E-1   -1.220620809701137E-1   -2.276301863971197E-1   -1.272280810815097E-1   -2.236818972752880E-1    6.766829334247793E-1   -4.153023507143119E-1
 3.612557500000000E9    -4.066033504416328E-1   -7.028151070021676E-1   -2.006886590045047E-1    8.626695720674857E-2   -1.992822194098606E-1    8.955778310595540E-2   -3.355478373046951E-1   -7.360174149785609E-1
 3.655057000000000E9    -7.537980538778940E-1    3.207083261238145E-1    5.254259427704571E-2    1.882651886595194E-1    5.538483915965316E-2    1.880867509390066E-1   -7.760364507579544E-1    2.402489200541027E-1
 3.697556500000000E9     2.139397101278518E-1    7.944752893544930E-1    1.844153587445137E-1   -2.885772380647238E-2    1.837020048438054E-1   -3.161131226574493E-2    1.337317653986727E-1    8.066683549981253E-1
 3.740056000000000E9     8.221468428443766E-1   -1.005058390909294E-1   -1.107346923332156E-2   -1.746664222658915E-1   -1.343870643972480E-2   -1.740129371757230E-1    8.273776336997684E-1   -1.644060383230772E-2
 3.782555500000000E9     3.928389363297016E-3   -8.317099995671267E-1   -1.632519060027353E-1   -1.347278556960407E-2   -1.633951993027094E-1   -1.066376093569663E-2    1.038304082503700E-1   -8.256401398661414E-1
 3.825055000000000E9    -8.208548263151147E-1   -1.040420548137602E-1   -3.904956280617095E-2    1.586171527597333E-1   -3.543229636787030E-2    1.598629102877827E-1   -7.941255080600561E-1   -2.242537613192527E-1
