#  HZ   S   RI   R     50.00 
! Rohde & Schwarz Vector Network Analyzer 
! Rohde-Schwarz,ZNB8-4Port,REDACTED,3.12
! Created: UTC 3/17/2026, 6:51:35 PM
! zx75bp-1450-s
! freq[Hz]                re:S11                  im:S11
 4.200000000000000E8    -7.805063468183771E-1   -5.188342539971987E-1
 4.300000000000000E8    -9.103565797680289E-1   -2.158385235753092E-1
 4.400000000000000E8    -9.272364897482660E-1    1.118402003500097E-1
 4.500000000000000E8    -8.306789279116812E-1    4.246477734176261E-1
 4.600000000000000E8    -6.327044868920325E-1    6.845604390333018E-1
 4.700000000000000E8    -3.581942392153393E-1    8.598578308313776E-1
 4.800000000000000E8    -4.033947232482876E-2    9.308870129892389E-1
 4.900000000000000E8     2.827379574824676E-1    8.882221214139543E-1
 5.000000000000000E8     5.718029106820900E-1    7.368799255997954E-1
 5.100000000000000E8     7.911062275099767E-1    4.950183307475078E-1
 5.200000000000000E8     9.143075155977174E-1    1.920642803807935E-1
 5.300000000000000E8     9.249223067184342E-1   -1.355967333597026E-1
 5.400000000000000E8     8.211712216237449E-1   -4.470390005933069E-1
 5.500000000000000E8     6.157866568891384E-1   -7.032823951716082E-1
 5.600000000000000E8     3.339316802848459E-1   -8.721250745284644E-1
 5.700000000000000E8     1.115098282049627E-2   -9.324491662925308E-1
 5.800000000000000E8    -3.121674690894807E-1   -8.769015552226465E-1
 5.900000000000000E8    -5.951223734947216E-1   -7.128619811121248E-1
 6.000000000000000E8    -8.032265038848518E-1   -4.612871576467211E-1
 6.100000000000000E8    -9.110994726789270E-1   -1.539049723522561E-1
 6.200000000000000E8    -9.061881697780706E-1    1.705746529804487E-1
 6.300000000000000E8    -7.900390772463425E-1    4.727811368698244E-1
 6.400000000000000E8    -5.773222519755449E-1    7.160772565008636E-1
 6.500000000000000E8    -2.942223173287758E-1    8.713651962767079E-1
 6.600000000000000E8     2.469028489365294E-2    9.196369130155051E-1
 6.700000000000000E8     3.408949560574828E-1    8.551326119087971E-1
 6.800000000000000E8     6.157407928813274E-1    6.858484400250006E-1
 6.900000000000000E8     8.155991482445676E-1    4.317632403824650E-1
 7.000000000000000E8     9.156365098885916E-1    1.233693693808919E-1
 7.100000000000000E8     9.027158653404667E-1   -2.013032542306711E-1
 7.200000000000000E8     7.770497254910584E-1   -5.020462447200906E-1
 7.300000000000000E8     5.542839074592790E-1   -7.406216167028262E-1
 7.400000000000000E8     2.612329789787156E-1   -8.866065541043620E-1
 7.500000000000000E8    -6.470675909264648E-2   -9.204005002942584E-1
 7.600000000000000E8    -3.820889706767381E-1   -8.378611828820143E-1
 7.700000000000000E8    -6.501933162812236E-1   -6.489919367507108E-1
 7.800000000000000E8    -8.346896851242663E-1   -3.779493511804704E-1
 7.900000000000000E8    -9.118439195395373E-1   -5.926341211130784E-2
 8.000000000000000E8    -8.721751061715919E-1    2.661193468107630E-1
 8.100000000000000E8    -7.204686002065771E-1    5.562467839532836E-1
 8.200000000000000E8    -4.764976519677988E-1    7.743465251702238E-1
 8.300000000000000E8    -1.711720362426740E-1    8.924701734096191E-1
 8.400000000000000E8     1.566830519071592E-1    8.951329171532754E-1
 8.500000000000000E8     4.645467114143598E-1    7.817023892967941E-1
 8.600000000000000E8     7.128741693861701E-1    5.660238974177227E-1
 8.700000000000000E8     8.688715570934791E-1    2.749296504717567E-1
 8.800000000000000E8     9.106021073442873E-1   -5.369987186516079E-2
 8.900000000000000E8     8.310159900516533E-1   -3.768779361634749E-1
 9.000000000000000E8     6.395369566358086E-1   -6.505219812534819E-1
 9.100000000000000E8     3.606933130967875E-1   -8.365696533437761E-1
 9.200000000000000E8     3.238948389319983E-2   -9.083745851359700E-1
 9.300000000000000E8    -2.998669949901097E-1   -8.547045318007874E-1
 9.400000000000000E8    -5.897380195255416E-1   -6.825089940162307E-1
 9.500000000000000E8    -7.950049581852953E-1   -4.154453507458118E-1
 9.600000000000000E8    -8.859415100225856E-1   -9.148257220652534E-2
 9.700000000000000E8    -8.492833354085868E-1    2.420853839741727E-1
 9.800000000000000E8    -6.900708287800925E-1    5.350893166354026E-1
 9.900000000000000E8    -4.344759382991569E-1    7.430103245625365E-1
 1.000000000000000E9    -1.248627489025054E-1    8.357062290914536E-1
 1.010000000000000E9     1.871899784623231E-1    8.057835940383458E-1
 1.020000000000000E9     4.567448296592002E-1    6.686293492208646E-1
 1.030000000000000E9     6.546131657571719E-1    4.523478979217255E-1
 1.040000000000000E9     7.641177398706729E-1    1.851263398408771E-1
 1.050000000000000E9     7.725442374170381E-1   -1.032822062318789E-1
 1.060000000000000E9     6.752243289100084E-1   -3.765978322952021E-1
 1.070000000000000E9     4.820631558303755E-1   -5.946979417674770E-1
 1.080000000000000E9     2.207710706860511E-1   -7.226238442430903E-1
 1.090000000000000E9    -6.701260689389847E-2   -7.393317661187007E-1
 1.100000000000000E9    -3.341723148759211E-1   -6.443977419373019E-1
 1.110000000000000E9    -5.383373830987206E-1   -4.588054177442554E-1
 1.120000000000000E9    -6.521461943407435E-1   -2.183460550876044E-1
 1.130000000000000E9    -6.675385510627160E-1    3.656940593780859E-2
 1.140000000000000E9    -5.947434604053040E-1    2.705797086073131E-1
 1.150000000000000E9    -4.490826720325105E-1    4.600329420398626E-1
 1.160000000000000E9    -2.488455535717291E-1    5.865991117387996E-1
 1.170000000000000E9    -1.533904455383045E-2    6.346151562806520E-1
 1.180000000000000E9     2.221291784114164E-1    5.927434290262326E-1
 1.190000000000000E9     4.270761118556012E-1    4.612961300802189E-1
 1.200000000000000E9     5.642707495819541E-1    2.592402479084754E-1
 1.210000000000000E9     6.087397851667877E-1    2.133610405168661E-2
 1.220000000000000E9     5.540216829343231E-1   -2.093697496654608E-1
 1.230000000000000E9     4.148753017990949E-1   -3.914790246962002E-1
 1.240000000000000E9     2.231261899724902E-1   -4.969447590698498E-1
 1.250000000000000E9     1.734941601260453E-2   -5.164823744644818E-1
 1.260000000000000E9    -1.667422506203217E-1   -4.594857536742590E-1
 1.270000000000000E9    -3.063222187297047E-1   -3.464890266450632E-1
 1.280000000000000E9    -3.907054057154722E-1   -2.006774173514144E-1
 1.290000000000000E9    -4.168554417589478E-1   -4.295060911847606E-2
 1.300000000000000E9    -3.879639266501202E-1    1.078594188084334E-1
 1.310000000000000E9    -3.093655062243832E-1    2.352018502895255E-1
 1.320000000000000E9    -1.920370991386226E-1    3.222112549482493E-1
 1.330000000000000E9    -5.382330345468023E-2    3.571419814325810E-1
 1.340000000000000E9     8.295875648979271E-2    3.352359028682513E-1
 1.350000000000000E9     1.943940322853028E-1    2.635320699624303E-1
 1.360000000000000E9     2.613628166064756E-1    1.590978243476700E-1
 1.370000000000000E9     2.773884612698607E-1    4.597865039609216E-2
 1.380000000000000E9     2.479045151247287E-1   -5.154004424974916E-2
 1.390000000000000E9     1.901912064345362E-1   -1.164733982487835E-1
 1.400000000000000E9     1.274218686850440E-1   -1.463935587269751E-1
 1.410000000000000E9     7.573241101416456E-2   -1.521370119196632E-1
 1.420000000000000E9     3.961727765617123E-2   -1.498694556054969E-1
 1.430000000000000E9     9.567597493127205E-3   -1.522747573593106E-1
 1.440000000000000E9    -2.799292870352709E-2   -1.570659408653133E-1
 1.450000000000000E9    -7.793272488732451E-2   -1.507400809574787E-1
 1.460000000000000E9    -1.311865266200062E-1   -1.193174752623003E-1
 1.470000000000000E9    -1.683543833987379E-1   -6.113326042269955E-2
 1.480000000000000E9    -1.732996707089731E-1    9.362024820534545E-3
 1.490000000000000E9    -1.449405668237840E-1    6.990343508918616E-2
 1.500000000000000E9    -9.813799764892225E-2    1.051296565409842E-1
 1.510000000000000E9    -5.082955160838194E-2    1.130119655459625E-1
 1.520000000000000E9    -1.780897195419778E-2    1.043393653033204E-1
 1.530000000000000E9    -1.712986959462919E-4    9.372401816941257E-2
 1.540000000000000E9     1.015621503385977E-2    9.076329285753512E-2
 1.550000000000000E9     2.488623682301064E-2    9.465500299392113E-2
 1.560000000000000E9     4.986675289765560E-2    9.713618514261434E-2
 1.570000000000000E9     8.224969374702031E-2    8.846969609245130E-2
 1.580000000000000E9     1.131113037733231E-1    6.393579651572907E-2
 1.590000000000000E9     1.325229307514488E-1    2.690147019160077E-2
 1.600000000000000E9     1.360445368340706E-1   -1.463922575619129E-2
 1.610000000000000E9     1.253162405328860E-1   -5.197251377763073E-2
 1.620000000000000E9     1.073740724940323E-1   -8.137086541901443E-2
 1.630000000000000E9     8.754180343589167E-2   -1.050846658177514E-1
 1.640000000000000E9     6.663551045054354E-2   -1.283120457207587E-1
 1.650000000000000E9     3.878514858125102E-2   -1.548227835473430E-1
 1.660000000000000E9    -4.193810646162096E-3   -1.807734282014049E-1
 1.670000000000000E9    -6.684446471168128E-2   -1.948889790487378E-1
 1.680000000000000E9    -1.444734234666734E-1   -1.830470358475065E-1
 1.690000000000000E9    -2.224786052543923E-1   -1.347560518477486E-1
 1.700000000000000E9    -2.811928045146250E-1   -4.922646697847913E-2
 1.710000000000000E9    -3.019719956121923E-1    6.248041203380641E-2
 1.720000000000000E9    -2.743599369217713E-1    1.805376874455232E-1
 1.730000000000000E9    -1.986952337741976E-1    2.825432499725978E-1
 1.740000000000000E9    -8.587623548071924E-2    3.489685833327571E-1
 1.750000000000000E9     4.600221494197081E-2    3.680599435541224E-1
 1.760000000000000E9     1.770213076014094E-1    3.366208898127169E-1
 1.770000000000000E9     2.887817171027827E-1    2.600089430532252E-1
 1.780000000000000E9     3.672094843909991E-1    1.484347294252779E-1
 1.790000000000000E9     4.034568586172695E-1    1.603616991346449E-2
 1.800000000000000E9     3.933493846764067E-1   -1.228511600105167E-1
 1.810000000000000E9     3.369369027435264E-1   -2.535717682846918E-1
 1.820000000000000E9     2.374333987452151E-1   -3.612749526974159E-1
 1.830000000000000E9     1.027301318424881E-1   -4.318218131742844E-1
 1.840000000000000E9    -5.365341938368298E-2   -4.526125725570151E-1
 1.850000000000000E9    -2.131134036677176E-1   -4.161507862129257E-1
 1.860000000000000E9    -3.533381262895585E-1   -3.220495926174871E-1
 1.870000000000000E9    -4.526521606027272E-1   -1.804959118719598E-1
 1.880000000000000E9    -4.948229764120597E-1   -1.012728268030486E-2
 1.890000000000000E9    -4.723187259032556E-1    1.651378744339028E-1
 1.900000000000000E9    -3.890183458819692E-1    3.207414308328975E-1
 1.910000000000000E9    -2.578158018485160E-1    4.360367803889566E-1
 1.920000000000000E9    -9.771297575411930E-2    4.992619808703064E-1
 1.930000000000000E9     7.194717812946780E-2    5.062729789538054E-1
 1.940000000000000E9     2.336923617026934E-1    4.592285725953534E-1
 1.950000000000000E9     3.729664947113454E-1    3.640557316254611E-1
 1.960000000000000E9     4.772805701942617E-1    2.287485304735350E-1
 1.970000000000000E9     5.351792988158318E-1    6.393689969173096E-2
 1.980000000000000E9     5.373564500076702E-1   -1.158164094756341E-1
 1.990000000000000E9     4.788925600433954E-1   -2.918284395409241E-1
 2.000000000000000E9     3.615309818494701E-1   -4.426567811837173E-1
 2.010000000000000E9     1.951445602932149E-1   -5.481352446283275E-1
 2.020000000000000E9    -1.828058155146825E-3   -5.909724774356614E-1
 2.030000000000000E9    -2.058817660728611E-1   -5.624035702638509E-1
 2.040000000000000E9    -3.903011092569989E-1   -4.629856341433312E-1
 2.050000000000000E9    -5.304487428580199E-1   -3.037354821019801E-1
 2.060000000000000E9    -6.072015435467103E-1   -1.038116114260356E-1
 2.070000000000000E9    -6.100848864571379E-1    1.116838606564255E-1
 2.080000000000000E9    -5.385811505182603E-1    3.158178379600376E-1
 2.090000000000000E9    -4.013066625883813E-1    4.840603403305463E-1
 2.100000000000000E9    -2.144037359483237E-1    5.970012190038386E-1
 2.110000000000000E9     1.882811071789733E-3    6.416218853246697E-1
 2.120000000000000E9     2.279375690580072E-1    6.102203524470472E-1
 2.130000000000000E9     4.210911124813004E-1    5.005280123747456E-1
 2.140000000000000E9     5.808831608730841E-1    3.214818148398162E-1
 2.150000000000000E9     6.505518136999980E-1    9.297108856164868E-2
 2.160000000000000E9     6.354509994723528E-1   -1.238786149183468E-1
 2.170000000000000E9     5.664758504536013E-1   -3.262067510318116E-1
 2.180000000000000E9     4.298493793258324E-1   -5.059966840106620E-1
 2.190000000000000E9     2.314406183474109E-1   -6.303487752337904E-1
 2.200000000000000E9    -2.969296430146259E-3   -6.756272890296406E-1
 2.210000000000000E9    -2.406723471607635E-1   -6.319197969808700E-1
 2.220000000000000E9    -4.458488278524217E-1   -5.025591120428906E-1
 2.230000000000000E9    -5.840201017535586E-1   -3.084429183659890E-1
 2.240000000000000E9    -6.394019816001284E-1   -8.909366152988435E-2
 2.250000000000000E9    -6.228786380103881E-1    1.254588117217993E-1
 2.260000000000000E9    -5.428409391897121E-1    3.225129088499320E-1
 2.270000000000000E9    -4.030123868953394E-1    4.853221476819792E-1
 2.280000000000000E9    -2.150526045133591E-1    5.941130773088770E-1
 2.290000000000000E9     1.035496779872142E-3    6.334846804197074E-1
 2.300000000000000E9     2.197959819911815E-1    5.961207893933896E-1
 2.310000000000000E9     4.135017262364337E-1    4.843015459951335E-1
 2.320000000000000E9     5.567341789863727E-1    3.113266033732018E-1
 2.330000000000000E9     6.305256318975764E-1    9.903178243237039E-2
 2.340000000000000E9     6.255937125252236E-1   -1.253455346145476E-1
 2.350000000000000E9     5.435381857209537E-1   -3.332683651282256E-1
 2.360000000000000E9     3.946575784874300E-1   -4.995942812188988E-1
 2.370000000000000E9     1.973295216491719E-1   -6.037601453879518E-1
 2.380000000000000E9    -2.360240443923118E-2   -6.315803311017560E-1
 2.390000000000000E9    -2.384864972301041E-1   -5.796051808198727E-1
 2.400000000000000E9    -4.185413235182089E-1   -4.566462816875173E-1
 2.410000000000000E9    -5.420451889601362E-1   -2.819480080800460E-1
 2.420000000000000E9    -5.973989700674874E-1   -7.919445449802860E-2
