#  HZ   S   RI   R     50.00 
! Rohde & Schwarz Vector Network Analyzer 
! Rohde-Schwarz,ZNB8-4Port,REDACTED,3.12
! Created: UTC 3/17/2026, 11:03:58 PM
! freq[Hz]                re:S11                  im:S11
 1.000000000000000E4     1.042722812480087      -1.851453539445360E-2
 1.000995000000000E7     9.326841257479851E-1   -3.593256333289534E-1
 2.000990000000000E7     7.390043437913674E-1   -6.717905984860182E-1
 3.000985000000000E7     4.492196222851531E-1   -8.896983688710273E-1
 4.000980000000000E7     9.967681523948815E-2   -9.887687462430702E-1
 5.000975000000000E7    -2.602758759199355E-1   -9.558606763074156E-1
 6.000970000000000E7    -5.828681580665229E-1   -7.968122646142574E-1
 7.000965000000000E7    -8.254829961802310E-1   -5.338410869242397E-1
 8.000960000000000E7    -9.571636921857585E-1   -2.042015855432579E-1
 9.000955000000000E7    -9.632117151582286E-1    1.485420675408780E-1
 1.000095000000000E8    -8.448005546165065E-1    4.789288405534338E-1
 1.100094500000000E8    -6.181250537447919E-1    7.452413586629797E-1
 1.200094000000000E8    -3.131599938741376E-1    9.137585239649932E-1
 1.300093500000000E8     3.111941310562597E-2    9.636785441314265E-1
 1.400093000000000E8     3.705162616457078E-1    8.888985573258521E-1
 1.500092500000000E8     6.615939731048435E-1    6.992011578298730E-1
 1.600092000000000E8     8.671036426416475E-1    4.188000341754296E-1
 1.700091500000000E8     9.595263960773507E-1    8.369146653758573E-2
 1.800091000000000E8     9.265513737702922E-1   -2.622736025246797E-1
 1.900090500000000E8     7.732062983807539E-1   -5.734645839953596E-1
 2.000090000000000E8     5.197123827969241E-1   -8.089620092226213E-1
 2.100089500000000E8     2.002609024286746E-1   -9.388398482041597E-1
 2.200089000000000E8    -1.429034832759311E-1   -9.472990539339692E-1
 2.300088500000000E8    -4.650912853116705E-1   -8.347859555512676E-1
 2.400088000000000E8    -7.256982693112982E-1   -6.174398867200878E-1
 2.500087500000000E8    -8.931397376878372E-1   -3.242069182292476E-1
 2.600087000000000E8    -9.477709095723746E-1    7.631116135307946E-3
 2.700086500000000E8    -8.838703132559246E-1    3.366132523653947E-1
 2.800086000000000E8    -7.100932063583286E-1    6.218407535513107E-1
 2.900085500000000E8    -4.484764876658597E-1    8.286512747084688E-1
 3.000085000000000E8    -1.319449892490138E-1    9.319007234961800E-1
 3.100084500000000E8     2.008955958818399E-1    9.190756730012465E-1
 3.200084000000000E8     5.086483447610840E-1    7.914616924866524E-1
 3.300083500000000E8     7.530568931153494E-1    5.640946019883690E-1
 3.400083000000000E8     9.028300993194471E-1    2.654361618222643E-1
 3.500082500000000E8     9.390487105883171E-1   -6.697439815021319E-2
 3.600082000000000E8     8.561808125437375E-1   -3.912963731199146E-1
 3.700081500000000E8     6.649541545789303E-1   -6.659248681108844E-1
 3.800081000000000E8     3.898619478932426E-1   -8.557944795990688E-1
 3.900080500000000E8     6.612039128263451E-2   -9.369808837473999E-1
 4.000080000000000E8    -2.643662613979594E-1   -8.994490186576540E-1
 4.100079500000000E8    -5.599616608543772E-1   -7.497215329768512E-1
 4.200079000000000E8    -7.839262020967488E-1   -5.074355010590503E-1
 4.300078500000000E8    -9.093180933391284E-1   -2.036517746887848E-1
 4.400078000000000E8    -9.218073128016729E-1    1.230861368313544E-1
 4.500077500000000E8    -8.214529353376091E-1    4.334245335111889E-1
 4.600077000000000E8    -6.207964284999224E-1    6.895852335458440E-1
 4.700076500000000E8    -3.451661135039727E-1    8.603451073479493E-1
 4.800076000000000E8    -2.787836992301016E-2    9.268193317995312E-1
 4.900075500000000E8     2.929764297472381E-1    8.800447918042892E-1
 5.000075000000000E8     5.784200745508775E-1    7.257573113199860E-1
 5.100074500000000E8     7.934099405962090E-1    4.824114572265850E-1
 5.200074000000000E8     9.120285968983829E-1    1.796865463112288E-1
 5.300073500000000E8     9.185813390934339E-1   -1.459812523656758E-1
 5.400073000000000E8     8.119215562335921E-1   -4.541487653280571E-1
 5.500072500000000E8     6.051671430724960E-1   -7.064062782964381E-1
 5.600072000000000E8     3.236157136536325E-1   -8.712729978471672E-1
 5.700071500000000E8     2.525602110635567E-3   -9.283367409620702E-1
 5.800071000000000E8    -3.182441813891650E-1   -8.706147481591892E-1
 5.900070500000000E8    -5.983607561527781E-1   -7.055619565100051E-1
 6.000070000000000E8    -8.038123269395090E-1   -4.540712306037687E-1
 6.100069500000000E8    -9.094402726706544E-1   -1.474134303834464E-1
 6.200069000000000E8    -9.027656668333554E-1    1.759311966930098E-1
 6.300068500000000E8    -7.851120099065794E-1    4.768351010065364E-1
 6.400068000000000E8    -5.711286332572980E-1    7.184583224594084E-1
 6.500067500000000E8    -2.871534054360997E-1    8.716479736567577E-1
 6.600067000000000E8     3.206416110820705E-2    9.173874197042132E-1
 6.700066500000000E8     3.478374219600081E-1    8.501389903939444E-1
 6.800066000000000E8     6.211978255490479E-1    6.780607782496877E-1
 6.900065500000000E8     8.183636722757858E-1    4.216896280345090E-1
 7.000065000000000E8     9.147254719664973E-1    1.121000586773268E-1
 7.100064500000000E8     8.975787149963359E-1   -2.121635415698455E-1
 7.200064000000000E8     7.681693974495050E-1   -5.105205568847447E-1
 7.300063500000000E8     5.430280522459613E-1   -7.451837146002815E-1
 7.400063000000000E8     2.497077813697095E-1   -8.865959770592097E-1
 7.500062500000000E8    -7.433826325660750E-2   -9.163221374040125E-1
 7.600062000000000E8    -3.882423172301007E-1   -8.312304855702098E-1
 7.700061500000000E8    -6.523878961778724E-1   -6.419196882039712E-1
 7.800061000000000E8    -8.335231090690353E-1   -3.725708948326404E-1
 7.900060500000000E8    -9.090168968203182E-1   -5.689030400359935E-2
 8.000060000000000E8    -8.695889099718802E-1    2.654779053421443E-1
 8.100059500000000E8    -7.195990373142856E-1    5.535297425009645E-1
 8.200059000000000E8    -4.778859853544565E-1    7.710549082274576E-1
 8.300058500000000E8    -1.743964247412063E-1    8.899706315986087E-1
 8.400058000000000E8     1.526326439535797E-1    8.940523659855527E-1
 8.500057500000000E8     4.606187364475460E-1    7.818543228984668E-1
 8.600057000000000E8     7.095481636768337E-1    5.667569038181723E-1
 8.700056500000000E8     8.659609936061931E-1    2.754901699197164E-1
 8.800056000000000E8     9.073450871245979E-1   -5.350592556850603E-2
 8.900055500000000E8     8.267927058688410E-1   -3.764962988727044E-1
 9.000055000000000E8     6.341795342000418E-1   -6.487869829217240E-1
 9.100054500000000E8     3.553632782151254E-1   -8.325357966623190E-1
 9.200054000000000E8     2.821239617156144E-2   -9.016785395545704E-1
 9.300053500000000E8    -3.006886499748371E-1   -8.460813681076323E-1
 9.400053000000000E8    -5.869072423544502E-1   -6.740073064658981E-1
 9.500052500000000E8    -7.880961920661887E-1   -4.085674308099898E-1
 9.600052000000000E8    -8.762030024339397E-1   -8.929180304776310E-2
 9.700051500000000E8    -8.396234154768175E-1    2.401378056995644E-1
 9.800051000000000E8    -6.808883423061646E-1    5.278664088438936E-1
 9.900050500000000E8    -4.308711222953130E-1    7.331864415021280E-1
 1.000005000000000E9    -1.245335398865390E-1    8.232445269940107E-1
 1.010004950000000E9     1.812804818014793E-1    7.953199132862361E-1
 1.020004900000000E9     4.489323935937979E-1    6.603424345241798E-1
 1.030004850000000E9     6.416047526503628E-1    4.489116939097086E-1
 1.040004800000000E9     7.540610547649923E-1    1.863956018233902E-1
 1.050004750000000E9     7.618554954731683E-1   -9.974216621998151E-2
 1.060004700000000E9     6.679667340377525E-1   -3.673951936703205E-1
 1.070004650000000E9     4.807423982602052E-1   -5.865429821395619E-1
 1.080004600000000E9     2.210993923441076E-1   -7.126486549034539E-1
 1.090004550000000E9    -6.010200265249923E-2   -7.308337050353898E-1
 1.100004500000000E9    -3.253945447874486E-1   -6.429281112641758E-1
 1.110004450000000E9    -5.272876199742417E-1   -4.601920129238553E-1
 1.120004400000000E9    -6.427193323539455E-1   -2.275189231012829E-1
 1.130004350000000E9    -6.644150588349411E-1    2.575633594732714E-2
 1.140004300000000E9    -5.923791848800809E-1    2.508957839719356E-1
 1.150004250000000E9    -4.569574873538806E-1    4.485609998897007E-1
 1.160004200000000E9    -2.578236369380971E-1    5.723769706410295E-1
 1.170004150000000E9    -3.177655595420482E-2    6.239175427535477E-1
 1.180004100000000E9     2.035283706851194E-1    5.850713645912883E-1
 1.190004050000000E9     4.129920427976866E-1    4.597197071115457E-1
 1.200004000000000E9     5.462201814728350E-1    2.609697563372298E-1
 1.210003950000000E9     5.904516030619323E-1    2.373008771606862E-2
 1.220003900000000E9     5.383182975711083E-1   -2.023551577927254E-1
 1.230003850000000E9     3.998159898231486E-1   -3.842128446716210E-1
 1.240003800000000E9     2.089689741163409E-1   -4.878633068333388E-1
 1.250003750000000E9     8.535385923415966E-3   -4.972007448911949E-1
 1.260003700000000E9    -1.671859800898074E-1   -4.506759741528777E-1
 1.270003650000000E9    -3.159925761086050E-1   -3.269615627683170E-1
 1.280003600000000E9    -3.858577239145156E-1   -1.915909359651731E-1
 1.290003550000000E9    -4.177806868702064E-1   -3.703042840472377E-2
 1.300003500000000E9    -3.804906650493137E-1    1.138594625376463E-1
 1.310003450000000E9    -3.132837791148772E-1    2.365475594477863E-1
 1.320003400000000E9    -1.914884869197735E-1    3.195777363886040E-1
 1.330003350000000E9    -6.046210410195191E-2    3.596105993850508E-1
 1.340003300000000E9     7.197915318548848E-2    3.338839839810949E-1
 1.350003250000000E9     1.873719338643197E-1    2.671188065885693E-1
 1.360003200000000E9     2.486460149360075E-1    1.642757978793826E-1
 1.370003150000000E9     2.650356654539611E-1    5.660391094252666E-2
 1.380003100000000E9     2.424110044182154E-1   -3.629261646980910E-2
 1.390003050000000E9     1.842233624718939E-1   -1.056026977725588E-1
 1.400003000000000E9     1.268333416807624E-1   -1.273036565493532E-1
 1.410002950000000E9     7.833892464417595E-2   -1.386054096540434E-1
 1.420002900000000E9     4.168822920972728E-2   -1.373650772898766E-1
 1.430002850000000E9     2.220610629017486E-2   -1.407590392312840E-1
 1.440002800000000E9    -2.376351426534546E-2   -1.512965981064237E-1
 1.450002750000000E9    -6.522959767434505E-2   -1.443091903100461E-1
 1.460002700000000E9    -1.247587703399537E-1   -1.231556655197203E-1
 1.470002650000000E9    -1.618868164766556E-1   -5.826618780543345E-2
 1.480002600000000E9    -1.657866354539475E-1    9.774818822984776E-4
 1.490002550000000E9    -1.464341837407938E-1    6.724970182896607E-2
 1.500002500000000E9    -9.755287135884572E-2    9.570067305096806E-2
 1.510002450000000E9    -6.089461007065766E-2    1.113462837955772E-1
 1.520002400000000E9    -2.084464633690149E-2    1.007083587807431E-1
 1.530002350000000E9    -1.354614802645193E-2    9.098080442959790E-2
 1.540002300000000E9     1.456068580451744E-3    9.580462862623490E-2
 1.550002250000000E9     1.044390116110567E-2    9.915238357452688E-2
 1.560002200000000E9     4.225824702893697E-2    1.121807726873505E-1
 1.570002150000000E9     7.621528694722693E-2    9.963059554767652E-2
 1.580002100000000E9     1.094023731517247E-1    7.888045926564058E-2
 1.590002050000000E9     1.303206352837814E-1    4.069084398795053E-2
 1.600002000000000E9     1.398719699752286E-1   -2.170349869489791E-3
 1.610001950000000E9     1.299660338447261E-1   -3.953927907981918E-2
 1.620001900000000E9     1.199457219285924E-1   -6.927343172605767E-2
 1.630001850000000E9     9.660613874594066E-2   -1.031705416177198E-1
 1.640001800000000E9     7.776409208027119E-2   -1.181379759817216E-1
 1.650001750000000E9     4.907370686177151E-2   -1.657456961702831E-1
 1.660001700000000E9     1.558774467653088E-3   -1.767921767743832E-1
 1.670001650000000E9    -5.945648643413262E-2   -2.019070315571139E-1
 1.680001600000000E9    -1.426820719528990E-1   -1.873336452373497E-1
 1.690001550000000E9    -2.216756883560655E-1   -1.398002794652773E-1
 1.700001500000000E9    -2.831207073412836E-1   -5.507700898201690E-2
 1.710001450000000E9    -3.038683288271032E-1    5.752585944561007E-2
 1.720001400000000E9    -2.814443964639634E-1    1.796344851441330E-1
 1.730001350000000E9    -2.054718872499866E-1    2.751791731287317E-1
 1.740001300000000E9    -9.707867609641845E-2    3.501287669789859E-1
 1.750001250000000E9     3.745730707743592E-2    3.705601528422057E-1
 1.760001200000000E9     1.612667458900760E-1    3.392173629743436E-1
 1.770001150000000E9     2.791675344630001E-1    2.725650411374638E-1
 1.780001100000000E9     3.581095214803221E-1    1.562983256185690E-1
 1.790001050000000E9     3.954211189858164E-1    3.183509956258604E-2
 1.800001000000000E9     3.925199406890655E-1   -1.088024489156643E-1
 1.810000950000000E9     3.360206015513076E-1   -2.381927136762509E-1
 1.820000900000000E9     2.418851653145073E-1   -3.478635656398243E-1
 1.830000850000000E9     1.113523805240766E-1   -4.197999597958614E-1
 1.840000800000000E9    -4.342762998408097E-2   -4.428170216751895E-1
 1.850000750000000E9    -2.011244922478881E-1   -4.100629939432718E-1
 1.860000700000000E9    -3.404426552296007E-1   -3.203737637074606E-1
 1.870000650000000E9    -4.420588881513111E-1   -1.813667543912709E-1
 1.880000600000000E9    -4.829600710328965E-1   -1.564193625344343E-2
 1.890000550000000E9    -4.652788887567195E-1    1.566976863428496E-1
 1.900000500000000E9    -3.832225980773230E-1    3.149616419388052E-1
 1.910000450000000E9    -2.547029165583294E-1    4.216997449711828E-1
 1.920000400000000E9    -1.022324978350025E-1    4.894156028918559E-1
 1.930000350000000E9     6.883319593799710E-2    4.975555706910521E-1
 1.940000300000000E9     2.243500186139072E-1    4.474511350866445E-1
 1.950000250000000E9     3.625346610506898E-1    3.595785798481639E-1
 1.960000200000000E9     4.661982958476356E-1    2.229305072105581E-1
 1.970000150000000E9     5.211230238490839E-1    6.186381617153232E-2
 1.980000100000000E9     5.240945625445050E-1   -1.179885201405464E-1
 1.990000050000000E9     4.636145909153744E-1   -2.912528845047175E-1
 2.000000000000000E9     3.485681772396544E-1   -4.366787941212257E-1
