!Mini-Circuits Laboratory
!S-Parameters
!Model: ZX60-P162LN+
!Run / Lot / Date Code: E114703 /  / NA
!Fixture: 
!Network Analyzer: ;  Serial number: 71013
!Date: 12/21/2011 at 12:41:24 PM
!S/N: Unit3
!Tested with: 
!
# Hz  S  dB  R  50
!Frequency    S11 dB        S11 Deg       S21 dB        S21 Deg       S12 dB        S12 Deg       S22 dB        S22 Deg       
10000000      0.0491117     -3.6350160    -33.1268883   -12.6471901   -41.6934013   -76.2759171   -0.0818912    -36.1362381   
15000000      -0.0219260    -5.0256972    -26.5544701   -30.3246403   -59.7174492   -179.1338959  0.0153914     -50.9216614   
20000000      -0.0187334    -6.8680382    -22.3258495   -36.0704117   -60.5988083   -156.3939972  -0.0180378    -66.7567596   
25000000      -0.0139871    -8.6382494    -18.8704109   -45.3412285   -67.5270462   98.3850937    -0.0633900    -80.6301880   
30000000      -0.0111516    -10.2770901   -16.3991508   -52.8047981   -62.9750900   -7.2870741    -0.0677356    -91.6622620   
35000000      -0.0174391    -12.0127697   -14.4320498   -59.5904007   -71.8096466   133.4237976   -0.0628719    -101.7848969  
40000000      -0.0207097    -13.7714701   -12.8566799   -66.1306915   -78.0700531   147.6417999   -0.1110158    -111.1130981  
45000000      -0.0227674    -15.4981098   -11.5700703   -71.8541794   -70.9080276   177.6672058   -0.1210336    -119.1874008  
50000000      -0.0204957    -17.9645901   -10.5428200   -77.4152374   -42.9408302   92.1041565    -0.1397565    -126.4242020  
55000000      -0.0286762    -18.8847694   -9.6048965    -81.6852264   -73.4325104   -92.6206131   -0.1700599    -132.7272034  
60000000      -0.0557666    -20.4202595   -8.8914700    -85.7873917   -50.1833801   165.6605988   -0.2038938    -138.6213989  
65000000      -0.0293393    -22.2878304   -8.2138243    -90.4572601   -64.6921082   53.0565987    -0.2263353    -143.9389954  
70000000      -0.0351772    -23.9817295   -7.6911469    -94.3184662   -65.1778717   94.2386703    -0.2513376    -148.7628021  
75000000      -0.0287302    -25.6869907   -7.2473412    -97.9332962   -76.4611435   -173.5895996  -0.2874882    -153.2355042  
80000000      -0.0291217    -27.3691502   -6.8901682    -101.4037018  -68.5434036   -170.9011993  -0.3272553    -157.4414978  
85000000      -0.0321301    -29.0648193   -6.6026530    -104.7546997  -70.6123123   163.5108032   -0.3542515    -161.2967072  
90000000      -0.0257806    -30.7831593   -6.3793321    -107.9198990  -64.8012238   137.8632965   -0.3833748    -164.9427032  
95000000      -0.0279700    -32.5532417   -6.1975851    -110.9839020  -81.7166367   104.2007980   -0.4182889    -168.4324036  
100000000     -0.0266944    -34.2286301   -6.1182709    -113.8236008  -71.6630630   -40.7899017   -0.4577763    -171.7142944  
105000000     -0.0201473    -35.9903984   -6.0676961    -116.6483002  -76.9309464   86.1450272    -0.4873384    -174.8045959  
110000000     -0.0270204    -37.6714401   -6.0965409    -119.3830032  -82.5583420   -162.8179016  -0.5238609    -177.8087006  
115000000     -0.0290885    -39.3847313   -6.1996450    -121.9349976  -69.0164032   -174.3634033  -0.5595640    179.3365021   
120000000     -0.0268700    -41.1450386   -6.3467412    -124.3798981  -71.1700974   -118.0987015  -0.5961508    176.6585999   
125000000     -0.0354333    -42.8344498   -6.5880609    -126.8210983  -69.2998810   108.3621979   -0.6286514    173.9786072   
130000000     -0.0314302    -44.5618896   -6.8918719    -129.1575012  -69.5122070   127.8882980   -0.6644784    171.3717041   
135000000     -0.0316071    -46.2536507   -7.3206091    -131.2299957  -74.7764130   89.5225830    -0.7129191    168.9694977   
140000000     -0.0331729    -47.9789810   -7.8702478    -133.0209045  -80.1166534   65.5314026    -0.7529863    166.5756989   
145000000     -0.0388724    -49.6692314   -8.5244703    -134.7462006  -70.3834076   123.2773972   -0.7968950    164.2825928   
150000000     -0.0308938    -51.2700500   -9.3625937    -136.0368042  -61.5220604   146.7342072   -0.8431787    162.0290985   
155000000     -0.0444540    -53.1586189   -10.3992996   -137.1358948  -70.8779373   113.1241989   -0.8869144    159.8318939   
160000000     -0.0484724    -54.8343506   -11.7110701   -137.4293976  -73.3649368   -155.3383026  -0.9387677    157.6616974   
165000000     -0.0515475    -56.5853691   -13.4314299   -136.6719971  -78.3941574   -50.8208199   -0.9801405    155.5316010   
170000000     -0.0536643    -58.3219795   -15.7168903   -133.3553925  -75.0195694   40.8704910    -1.0264250    153.4996033   
175000000     -0.0534697    -60.0639000   -18.9760609   -124.0375977  -67.8459396   125.3999023   -1.0771610    151.5124054   
180000000     -0.0530756    -61.8025894   -23.0053806   -96.2160568   -81.5714111   114.8693008   -1.1252750    149.4889069   
185000000     -0.0541270    -63.5359612   -22.4278698   -42.8411407   -72.3114471   71.5718994    -1.1694200    147.5227966   
190000000     -0.0595414    -65.3226929   -17.8341999   -16.4178791   -70.3889008   100.4104996   -1.2222810    145.5820007   
195000000     -0.0584727    -67.0556335   -14.0228100   -6.8718982    -73.3122406   93.0962372    -1.2690150    143.7052002   
200000000     -0.0578329    -68.8402863   -11.0865202   -3.8577280    -65.4343567   142.4508057   -1.3156281    141.8166962   
205000000     -0.0635625    -70.6154938   -8.7545156    -2.8575170    -66.3740692   -163.1040955  -1.3691140    139.9851990   
210000000     -0.0671427    -72.4088287   -6.7883010    -3.0184441    -83.2768707   -56.4754982   -1.4150630    138.1307983   
215000000     -0.0767662    -74.2166290   -5.1097121    -3.9284530    -68.9791031   152.9378052   -1.4622190    136.3162994   
220000000     -0.0766654    -75.9401627   -3.6308060    -5.0972519    -68.0382385   165.3168030   -1.5204580    134.5130005   
225000000     -0.0777593    -77.7648773   -2.3112919    -6.5035510    -69.5778275   -111.1460037  -1.5805629    132.7615967   
230000000     -0.0810666    -79.5501099   -1.1075360    -8.0738001    -67.5232468   -117.4456024  -1.6341010    131.0484009   
235000000     -0.0839257    -81.3236084   0.0172031     -9.8061533    -72.9587631   -120.2628021  -1.6877190    129.2993011   
240000000     -0.0944835    -83.1542816   1.0398231     -11.6024399   -62.7840614   -122.2340012  -1.7443560    127.5590973   
245000000     -0.0946742    -84.9105606   1.9986770     -13.4178801   -65.6259766   -131.6179047  -1.7958100    125.8692017   
250000000     -0.1217049    -86.8438568   2.8830500     -15.4397697   -62.3303490   -122.9994965  -1.8538640    124.1918030   
255000000     -0.0981481    -88.6461029   3.7489491     -17.2327499   -62.5404091   -101.8598022  -1.9086519    122.5537033   
260000000     -0.0964377    -90.4372864   4.5382910     -19.1438999   -61.6985397   -165.9971924  -1.9728600    120.8613968   
265000000     -0.1091999    -92.2825775   5.2930598     -21.2175503   -59.3728218   -139.0375977  -2.0338559    119.2396011   
270000000     -0.1062662    -94.1995468   6.0255709     -23.2005196   -61.4134407   -135.7050018  -2.0952339    117.6399002   
275000000     -0.1284648    -96.0358963   6.6945930     -25.3090191   -60.9999199   -126.2844009  -2.1642890    115.9813004   
280000000     -0.1225480    -97.9472504   7.3632259     -27.4043694   -62.7308884   -176.1710052  -2.2205739    114.2698975   
285000000     -0.1444345    -99.8574829   7.9837341     -29.5708599   -58.0471916   -139.1502075  -2.2935319    112.6183014   
290000000     -0.1563713    -101.7453003  8.5915689     -31.6163006   -61.0516205   -139.6714935  -2.3548920    111.0569000   
295000000     -0.1618083    -103.6509018  9.1806974     -33.7627602   -56.5709496   -147.8063965  -2.4214461    109.4533005   
300000000     -0.1705493    -105.5094986  9.7335367     -35.7016792   -53.4467506   -151.5628967  -2.4829760    107.9481964   
305000000     -0.1987620    -107.4462967  10.2676802    -38.0022812   -56.0724411   -166.0505981  -2.5569279    106.2678986   
310000000     -0.2026022    -109.4194031  10.8030396    -40.1308708   -56.3891792   -170.6483002  -2.6194949    104.6846008   
315000000     -0.2110074    -111.3925018  11.3002501    -42.2885094   -58.5365601   -150.9008026  -2.7004550    103.1630020   
320000000     -0.2324593    -113.2319031  11.7900200    -44.3570595   -54.1346512   -164.9960938  -2.7675760    101.5637970   
325000000     -0.2445844    -115.3160019  12.2630501    -46.5808792   -53.7229691   -160.9779968  -2.8459160    100.0242996   
330000000     -0.2628054    -117.1516037  12.7208796    -48.6928482   -54.2802582   -162.3034058  -2.9143510    98.4391632    
335000000     -0.2819645    -119.1389008  13.1676302    -50.9109306   -53.7886581   -160.2456970  -2.9911959    96.8044586    
340000000     -0.3052700    -121.1508026  13.5975399    -53.0826302   -53.5431900   -163.1638031  -3.0739291    95.3385620    
345000000     -0.3190865    -123.0950012  14.0220699    -55.3066902   -51.8972015   -177.0438995  -3.1466811    93.6795502    
350000000     -0.3468723    -125.1071014  14.4238501    -57.4958305   -51.8306198   177.5404968   -3.2331719    92.2076416    
355000000     -0.3729396    -127.1850967  14.8277597    -59.7464981   -51.3853607   -174.1714020  -3.3048611    90.5971832    
360000000     -0.4010373    -129.1553955  15.2018900    -61.9243698   -50.8431511   -173.0617065  -3.3955491    89.0349426    
365000000     -0.4285137    -131.2001038  15.5780802    -64.1373825   -50.3820915   -176.6593933  -3.4794400    87.5377884    
370000000     -0.4598531    -133.2373962  15.9389000    -66.4011993   -50.0691109   -173.7200928  -3.5668061    85.9928513    
375000000     -0.4879108    -135.3096008  16.2893505    -68.5885773   -49.9890404   177.5343018   -3.6578619    84.4702072    
380000000     -0.5233219    -137.3394928  16.6313095    -70.8499069   -49.7100792   177.9951019   -3.7547851    82.9719925    
385000000     -0.5660337    -139.3542023  16.9545708    -73.0411987   -48.7135201   178.0549011   -3.8423560    81.4211731    
390000000     -0.6032830    -141.4954071  17.2809696    -75.3565521   -49.0720291   174.4420013   -3.9382701    79.8610382    
395000000     -0.6406031    -143.5283051  17.5992908    -77.5214233   -48.2771912   173.0874023   -4.0301232    78.3611221    
400000000     -0.6849559    -145.5516968  17.8969097    -79.8275528   -47.9748497   173.5536041   -4.1373811    76.7827072    
405000000     -0.7233504    -147.6553040  18.2004395    -82.1404877   -48.2695503   172.2006073   -4.2431908    75.1875229    
410000000     -0.7615219    -149.7548065  18.4865494    -84.3856888   -47.0315399   166.0135040   -4.3450370    73.7061310    
415000000     -0.8189501    -151.8923035  18.7665691    -86.6835403   -46.9603882   161.3217010   -4.4512272    72.1626663    
420000000     -0.8683164    -153.9817047  19.0304298    -88.8852386   -46.9865990   163.1049042   -4.5594220    70.7764664    
425000000     -0.9336131    -156.1468048  19.2872505    -91.1913605   -45.8384399   163.1219025   -4.6740208    69.1768417    
430000000     -0.9971237    -158.2342987  19.5371208    -93.4647064   -46.1578598   158.8356018   -4.7787709    67.7054367    
435000000     -1.0510690    -160.3784943  19.7845707    -95.8210068   -45.2458992   160.0646057   -4.9065309    66.2280426    
440000000     -1.1271189    -162.4694061  20.0214691    -98.0103378   -45.3694191   154.4145966   -5.0191560    64.7613831    
445000000     -1.1871320    -164.5619965  20.2581692    -100.2694016  -45.2210388   150.9031982   -5.1388221    63.2323685    
450000000     -1.2608430    -166.6786957  20.4738102    -102.5905991  -44.3621101   152.7005005   -5.2694168    61.7474098    
455000000     -1.3337590    -168.7940979  20.6905403    -104.7994003  -44.7999687   152.9172058   -5.3874102    60.3551407    
460000000     -1.4017010    -170.8867035  20.9030209    -107.0766983  -44.2689095   147.8665924   -5.5122728    58.9273682    
465000000     -1.4973530    -173.0559998  21.0952606    -109.3422012  -44.5498085   145.1208954   -5.6398382    57.4607010    
470000000     -1.5711920    -175.0886993  21.2957306    -111.5503998  -43.7534599   143.6829071   -5.7768760    56.0638084    
475000000     -1.6597170    -177.2512970  21.4764900    -113.8365021  -43.4262314   139.6582947   -5.9158511    54.6515999    
480000000     -1.7586880    -179.3867035  21.6577301    -116.0916977  -43.3754616   140.7503052   -6.0421610    53.2475090    
485000000     -1.8474010    178.5422058   21.8340492    -118.2780991  -43.1204185   138.0260010   -6.1837740    51.9066010    
490000000     -1.9426000    176.4609070   21.9964008    -120.5895004  -42.7473602   135.5970001   -6.3176618    50.4162598    
495000000     -2.0466809    174.3533020   22.1594391    -122.8385010  -42.7578812   134.4631042   -6.4668140    48.9690819    
500000000     -2.1568680    172.2306061   22.3079205    -125.0258026  -42.3888512   131.9891968   -6.6119890    47.6251106    
505000000     -2.2579491    170.2158051   22.4503803    -127.2617035  -42.4436493   130.0937042   -6.7541780    46.3059006    
510000000     -2.3615210    168.0390930   22.5994606    -129.5014954  -41.9228287   129.2140961   -6.9051299    44.9758492    
515000000     -2.4768131    166.0133057   22.7238693    -131.6463928  -42.3107185   126.1462021   -7.0472288    43.6239090    
520000000     -2.6021540    163.9579926   22.8559208    -133.8495026  -41.8101006   124.4984970   -7.1920910    42.3044395    
525000000     -2.7235620    161.8932037   22.9732094    -135.9759979  -41.6478004   124.7865982   -7.3477812    41.0214691    
530000000     -2.8501830    159.8706055   23.0850201    -138.1452026  -41.6708603   122.3718033   -7.4958410    39.7441406    
535000000     -2.9643140    157.9165039   23.2066803    -140.2416992  -41.4093895   117.1855011   -7.6533222    38.4575806    
540000000     -3.1052451    155.8694000   23.3017807    -142.4156036  -41.2043686   117.1188965   -7.7899089    37.2334900    
545000000     -3.2297189    153.8370972   23.4047699    -144.5639954  -41.1080208   114.3496017   -7.9530001    36.0152817    
550000000     -3.3726180    151.8101959   23.4997902    -146.6531067  -41.3049393   114.5365982   -8.0979795    34.7804718    
555000000     -3.5052271    149.9333954   23.5885391    -148.7592010  -40.4221497   114.5692978   -8.2540789    33.6705208    
560000000     -3.6527350    147.8807983   23.6715603    -150.8562012  -40.6768303   111.2354965   -8.4050999    32.4800301    
565000000     -3.7917459    146.0144958   23.7518806    -152.8842926  -40.3336983   110.5865021   -8.5656233    31.2274704    
570000000     -3.9426551    143.9848938   23.8238907    -154.9364929  -40.5365105   105.7733994   -8.7151833    30.1230392    
575000000     -4.0934868    142.1575928   23.8959408    -156.9425964  -40.4149895   105.9682999   -8.8792295    29.0285702    
580000000     -4.2550220    140.2304993   23.9570198    -158.9714050  -40.0760612   104.2873001   -9.0339565    27.7892094    
585000000     -4.4030390    138.3105927   24.0219803    -160.9468994  -40.1918602   102.0649033   -9.1883268    26.6617908    
590000000     -4.5589662    136.4281006   24.0858192    -162.9441986  -39.8311310   99.7434082    -9.3397589    25.5750408    
595000000     -4.7204008    134.6100006   24.1383305    -164.8843994  -39.5717087   97.6138229    -9.4905787    24.5137100    
600000000     -4.8852930    132.7519073   24.1805401    -166.8327026  -39.6460495   97.1309433    -9.6569071    23.3042908    
605000000     -5.0478382    130.9158020   24.2348709    -168.7429047  -39.6567116   96.7959671    -9.8009319    22.2796001    
610000000     -5.2199130    129.0941010   24.2744102    -170.6508026  -39.4586983   94.5084381    -9.9460192    21.2281303    
615000000     -5.3771892    127.2970963   24.3127995    -172.5195007  -39.4127312   92.8201828    -10.1021299   20.2409706    
620000000     -5.5572958    125.5042038   24.3496094    -174.4107971  -39.3989792   90.3427887    -10.2368698   19.2438507    
625000000     -5.7287960    123.7506027   24.3789806    -176.2519989  -39.5862503   90.6344223    -10.3911400   18.0194092    
630000000     -5.8991418    122.0072021   24.4165001    -178.0847015  -39.6062508   89.2347565    -10.5284796   16.9338894    
635000000     -6.0817089    120.3771973   24.4449692    -179.9203949  -39.3816185   87.7753906    -10.6613798   16.0019398    
640000000     -6.2528148    118.5582962   24.4734993    178.2893982   -38.8826790   87.1069336    -10.8022099   15.1867905    
645000000     -6.4274130    116.8520966   24.4952602    176.4635010   -39.2635994   85.4195175    -10.9539604   14.0825500    
650000000     -6.6071358    115.1470032   24.5126095    174.7463074   -38.5135994   82.7878113    -11.0689602   13.1692801    
655000000     -6.7978139    113.5024033   24.5263195    173.0016022   -39.0087395   80.5209732    -11.2204599   12.1383696    
660000000     -6.9845672    111.8473969   24.5353699    171.2841034   -38.9047394   79.9331665    -11.3664198   11.0835896    
665000000     -7.1712642    110.2040024   24.5527496    169.5720978   -39.1443214   77.8021164    -11.4869604   10.2355204    
670000000     -7.3620758    108.6368027   24.5569706    167.9181061   -38.9704208   78.2552872    -11.6200600   9.2826662     
675000000     -7.5580711    106.9887009   24.5694599    166.2575989   -38.8060493   75.7681198    -11.7392702   8.3047810     
680000000     -7.7349072    105.4107971   24.5758591    164.5372925   -38.9061813   74.4980774    -11.8828897   7.3720040     
685000000     -7.9273348    103.8477020   24.5783005    162.9369049   -38.4613609   73.1181335    -11.9954996   6.3091731     
690000000     -8.1201401    102.2742996   24.5774097    161.2937927   -38.6185303   73.8728867    -12.1154900   5.3042240     
695000000     -8.3138933    100.6845016   24.5797691    159.7344055   -38.4915314   72.3037720    -12.2522297   4.4417439     
700000000     -8.5080070    99.0794373    24.5740299    158.1168976   -38.6105003   70.5422516    -12.3608198   3.2528789     
705000000     -8.6995487    97.6531830    24.5711098    156.5688019   -38.9121094   68.3670120    -12.4686899   2.3375490     
710000000     -8.9095974    96.1645432    24.5673599    155.0030060   -38.3730202   67.5086899    -12.5980997   1.3347980     
715000000     -9.1044827    94.6417999    24.5616894    153.4541016   -38.4274101   66.8472137    -12.6903000   0.4361006     
720000000     -9.2861786    93.1673203    24.5525608    151.9188995   -38.4998817   64.6526413    -12.8149004   -0.6666064    
725000000     -9.4984341    91.5938187    24.5482101    150.4096069   -38.3861008   62.6026192    -12.9013996   -1.5731790    
730000000     -9.6894035    90.1783829    24.5303497    148.9221954   -38.2414703   63.1523094    -13.0214195   -2.4256310    
735000000     -9.8855877    88.7137909    24.5210896    147.4277039   -38.3642502   60.5332108    -13.1302500   -3.5865340    
740000000     -10.0978098   87.3027115    24.5088196    145.9389954   -38.2752304   59.8493309    -13.2301102   -4.5003009    
745000000     -10.2775097   85.8244171    24.4994202    144.5263977   -38.4351196   60.4989586    -13.3456602   -5.4305549    
750000000     -10.4952097   84.5034180    24.4850101    143.1060944   -38.3121910   57.5615196    -13.4355297   -6.5877008    
755000000     -10.6999798   83.1800003    24.4714108    141.6535034   -38.4104500   57.5942497    -13.5458298   -7.5116749    
760000000     -10.8954601   81.6940765    24.4511909    140.2427979   -38.2425003   56.6548996    -13.6450300   -8.6744623    
765000000     -11.1037502   80.3405380    24.4330101    138.8329010   -38.3883018   55.5008698    -13.7387600   -9.6583328    
770000000     -11.3270102   78.9341125    24.4200897    137.4555054   -38.0132713   54.6973381    -13.8302402   -10.6896296   
775000000     -11.5236197   77.6214218    24.3967495    136.0832062   -38.2268295   53.1933594    -13.9144001   -11.7523203   
