!Mini-Circuits Laboratory
!S-Parameters
!Model: ZX60-P162LN+
!Run / Lot / Date Code: E114703 /  / NA
!Fixture: 
!Network Analyzer: ;  Serial number: 71013
!Date: 12/21/2011 at 12:41:37 PM
!S/N: Unit3
!Tested with: 
!
# Hz  S  dB  R  50
!Frequency    S11 dB        S11 Deg       S21 dB        S21 Deg       S12 dB        S12 Deg       S22 dB        S22 Deg       
10000000      0.0578860     -2.9505050    -33.9956894   -9.8838348    -39.9010887   153.4635010   -0.0719042    -36.0478210   
15000000      -0.0212690    -5.0249982    -27.9473801   -30.6283798   -53.8548584   60.0017395    0.0288082     -50.7774086   
20000000      -0.0188737    -6.8381648    -22.9709892   -36.5086784   -74.0954132   -103.3775024  -0.0171520    -66.7385864   
25000000      -0.0173026    -8.4669476    -19.6457806   -46.3920708   -65.9031601   -154.0027008  -0.0794473    -80.6228867   
30000000      -0.0134010    -10.1393099   -17.2012806   -53.2936096   -68.5014572   -42.6112404   -0.0933020    -91.6777115   
35000000      -0.0145409    -11.8501196   -15.2207804   -60.0851212   -82.4481430   -69.4202271   -0.0974253    -101.8797989  
40000000      -0.0209856    -13.5233402   -13.7229700   -66.7862778   -61.0902214   124.7487030   -0.1464941    -111.3035965  
45000000      -0.0256853    -15.2570400   -12.4139099   -72.4868011   -67.8151627   -100.6924973  -0.1618619    -119.4387970  
50000000      -0.1169228    -17.1266308   -11.4111204   -77.8359680   -43.2114792   4.0533781     -0.1840192    -126.7356033  
55000000      -0.0326924    -18.6323891   -10.4786196   -82.3451691   -64.2957916   36.1854095    -0.2156667    -133.0942993  
60000000      -0.0117832    -20.0507507   -9.7552404    -86.3492584   -50.0429306   75.7072830    -0.2590072    -139.0632019  
65000000      -0.0355029    -21.9964104   -9.1081467    -90.8547974   -68.5717163   178.2310944   -0.2840474    -144.4335938  
70000000      -0.0380160    -23.6679001   -8.5911245    -94.6366730   -70.7197266   125.6929016   -0.3156220    -149.3036041  
75000000      -0.0383566    -25.3941402   -8.1547470    -98.1943436   -66.8361511   151.2487946   -0.3535321    -153.8191986  
80000000      -0.0388427    -27.0973701   -7.8056479    -101.5515976  -75.4243164   66.8272781    -0.3925801    -158.0572052  
85000000      -0.0432703    -28.7900505   -7.4972310    -104.8448029  -70.7120209   135.2207947   -0.4251410    -161.9472046  
90000000      -0.0353673    -30.4699802   -7.2859588    -107.9569016  -65.9872818   69.3922501    -0.4592508    -165.6351929  
95000000      -0.0425716    -32.2856102   -7.1247029    -110.9457016  -85.6836700   100.8407974   -0.5010484    -169.0879974  
100000000     -0.0391985    -33.9665909   -7.0423589    -113.7577972  -71.4082108   162.6190948   -0.5370537    -172.4082947  
105000000     -0.0369181    -35.7614403   -7.0002580    -116.5213013  -73.9321976   32.0361710    -0.5708427    -175.5084991  
110000000     -0.0473981    -37.4603691   -7.0533571    -119.1006012  -71.9244537   98.7956696    -0.6083475    -178.4801941  
115000000     -0.0462180    -39.2042007   -7.1628690    -121.5698013  -70.6222229   80.5016022    -0.6498715    178.6661072   
120000000     -0.0459963    -40.9710617   -7.3216629    -123.9338989  -70.8804626   131.1219940   -0.6845818    175.9687958   
125000000     -0.0541671    -42.7254791   -7.5818729    -126.2645035  -82.5274734   -54.7138901   -0.7228536    173.3188019   
130000000     -0.0586323    -44.4370499   -7.9269199    -128.1748962  -69.6285172   34.7025108    -0.7575287    170.8307953   
135000000     -0.0555138    -46.2110710   -8.3547773    -130.2792969  -70.5816727   89.1799469    -0.8095101    168.3504944   
140000000     -0.0573894    -47.9611397   -8.9050064    -131.9860992  -77.4811096   68.0165176    -0.8505185    165.9985962   
145000000     -0.0639738    -49.7046700   -9.6030045    -133.3408051  -67.7791138   143.2306061   -0.8962804    163.7548065   
150000000     -0.0694878    -51.3694305   -10.4647999   -134.3580017  -63.5544891   -138.6663971  -0.9385449    161.4911041   
155000000     -0.0727869    -53.2463989   -11.5248604   -135.1105042  -67.8786316   87.6314468    -0.9912133    159.3348999   
160000000     -0.0792441    -54.9756508   -12.8927402   -134.4812012  -76.0962524   157.6793060   -1.0445830    157.2472992   
165000000     -0.0857519    -56.7531319   -14.6504498   -132.6260071  -77.5397263   129.7667999   -1.0859040    155.1723022   
170000000     -0.0891692    -58.5375099   -16.9792805   -127.1849976  -67.8050766   134.8762054   -1.1362590    153.1593933   
175000000     -0.0895008    -60.3118591   -20.0547504   -113.6138000  -68.5578690   -174.4927063  -1.1870950    151.2223053   
180000000     -0.0908413    -62.0814018   -22.8441200   -81.4595718   -70.7745132   97.7186584    -1.2371850    149.2335968   
185000000     -0.0971632    -63.8286400   -21.1586609   -39.6726608   -86.8503571   -140.6687927  -1.2838171    147.3327026   
190000000     -0.1018084    -65.6563797   -17.2999401   -18.0727501   -67.8553772   25.6186905    -1.3378110    145.4313049   
195000000     -0.1058469    -67.4084778   -13.9679604   -9.7158623    -72.5693207   95.0497665    -1.3856720    143.6015930   
200000000     -0.1055850    -69.2409363   -11.2918596   -6.2792439    -78.8060532   127.4695969   -1.4349730    141.7583008   
205000000     -0.1153124    -71.0232468   -9.1006536    -5.0459399    -73.5019608   -132.5066986  -1.4948930    139.9568939   
210000000     -0.1217304    -72.8572769   -7.2398372    -5.0583129    -70.9854813   -149.4154053  -1.5418380    138.1710052   
215000000     -0.1294847    -74.7002563   -5.6189928    -5.6437492    -92.8481827   14.6631002    -1.5928590    136.3670044   
220000000     -0.1325340    -76.4408035   -4.1922002    -6.6509118    -72.3742294   67.2540131    -1.6548710    134.6602936   
225000000     -0.1355658    -78.2630234   -2.9007950    -7.9681959    -66.5046692   -131.8038940  -1.7169150    132.9163055   
230000000     -0.1396047    -80.0714874   -1.7316591    -9.3572483    -68.1954193   -136.7198944  -1.7741510    131.2507019   
235000000     -0.1490059    -81.8827820   -0.6322170    -10.9923296   -65.9592590   -146.7613983  -1.8272920    129.4884033   
240000000     -0.1581518    -83.7155533   0.3675316     -12.6900997   -65.2443695   -130.0135040  -1.8909950    127.8357010   
245000000     -0.1641770    -85.4552765   1.3148590     -14.4141102   -64.7978897   -174.8576050  -1.9489681    126.1535034   
250000000     -0.1883351    -87.4099731   2.1925759     -16.3381195   -71.1481705   24.6900501    -2.0108190    124.4972992   
255000000     -0.1708781    -89.1951065   3.0357571     -18.0454903   -66.0298767   -78.9956436   -2.0729561    122.9133987   
260000000     -0.1700347    -90.9818573   3.8165951     -19.9437504   -64.2332230   -176.8155060  -2.1393981    121.2594986   
265000000     -0.1862185    -92.8419266   4.5590138     -21.9351807   -66.1062088   -161.2500000  -2.2067330    119.6510010   
270000000     -0.1889439    -94.7183838   5.2866492     -23.8495293   -57.5041809   -146.9405975  -2.2663951    118.0385971   
275000000     -0.2123020    -96.5571899   5.9527531     -25.8894005   -58.7163315   -154.6576996  -2.3367610    116.4019012   
280000000     -0.2087476    -98.4222870   6.6182060     -27.9297009   -57.4948082   -153.8233032  -2.4031489    114.7068024   
285000000     -0.2234573    -100.3413010  7.2321219     -30.0204792   -60.2990417   -158.5325012  -2.4782660    113.0947037   
290000000     -0.2393774    -102.1500015  7.8362818     -31.9932003   -57.0551300   -132.6865997  -2.5442381    111.5438004   
295000000     -0.2512182    -104.1019974  8.4199266     -34.1229897   -56.1917381   -151.1121979  -2.6103380    109.9391022   
300000000     -0.2672144    -105.9082031  8.9707260     -36.0204391   -57.9214592   -171.2595978  -2.6816621    108.4359970   
305000000     -0.2930438    -107.8002014  9.5009689     -38.2512703   -57.5688400   -154.1495972  -2.7663729    106.7384033   
310000000     -0.2984387    -109.7510986  10.0398903    -40.3380890   -54.9589005   -165.7485962  -2.8290250    105.1606979   
315000000     -0.3081646    -111.6699982  10.5365896    -42.4370193   -55.5067482   -144.3079071  -2.9155059    103.6306992   
320000000     -0.3314138    -113.5044022  11.0249901    -44.4827499   -54.4855194   -160.9479065  -2.9926150    101.9909973   
325000000     -0.3475519    -115.5317993  11.4988203    -46.6637497   -55.3404388   -171.0614929  -3.0732851    100.4395981   
330000000     -0.3662594    -117.3985977  11.9593801    -48.7504997   -51.9382706   -170.3632965  -3.1443200    98.8279419    
335000000     -0.3893650    -119.3050003  12.4036798    -50.9201698   -53.6006088   -166.4851990  -3.2287250    97.2545090    
340000000     -0.4098631    -121.2931976  12.8373699    -53.0361099   -53.7975807   -163.3836060  -3.3162279    95.6796722    
345000000     -0.4301748    -123.1990967  13.2624598    -55.2425919   -51.0816193   -161.0989990  -3.3949840    94.0759506    
350000000     -0.4575182    -125.2415009  13.6642199    -57.3981895   -51.3314400   -177.5630035  -3.4820480    92.5180511    
355000000     -0.4891919    -127.2648010  14.0703697    -59.6101799   -50.0000801   -176.5148010  -3.5607841    90.8750534    
360000000     -0.5153256    -129.2227020  14.4483204    -61.7680397   -51.1716690   -172.9375000  -3.6512160    89.3219376    
365000000     -0.5480303    -131.2360992  14.8278904    -63.9474792   -49.7518082   -174.7140045  -3.7432671    87.7959900    
370000000     -0.5885612    -133.2528992  15.1884804    -66.1747894   -49.1010895   -179.6006012  -3.8371229    86.2196121    
375000000     -0.6210974    -135.3135986  15.5396299    -68.3594131   -49.7018509   178.3175964   -3.9341099    84.6852112    
380000000     -0.6537359    -137.3206024  15.8892403    -70.5915298   -48.1496811   178.9673004   -4.0284982    83.0973663    
385000000     -0.7036703    -139.3392944  16.2157402    -72.7736969   -48.4048004   178.5648956   -4.1255250    81.5524673    
390000000     -0.7394777    -141.4593964  16.5477600    -75.0693130   -47.5610199   178.6062012   -4.2229891    79.9410019    
395000000     -0.7861481    -143.4754944  16.8714199    -77.2212601   -47.9595299   169.5610046   -4.3218260    78.4030380    
400000000     -0.8335096    -145.5464020  17.1708508    -79.5251465   -46.8965912   170.4566956   -4.4395599    76.8180237    
405000000     -0.8823861    -147.6213989  17.4776192    -81.8179932   -46.6568489   169.6441040   -4.5460491    75.1629028    
410000000     -0.9243259    -149.6873932  17.7679996    -84.0501785   -47.4001198   165.6208954   -4.6562648    73.6230316    
415000000     -0.9834036    -151.8253021  18.0536709    -86.3374863   -46.1108093   168.5202026   -4.7686400    72.0413589    
420000000     -1.0399470    -153.9340973  18.3202095    -88.5372696   -46.1191216   164.2256927   -4.8669138    70.5940094    
425000000     -1.1122500    -156.1139984  18.5825901    -90.8475266   -45.2756004   160.4205933   -4.9917898    69.0034637    
430000000     -1.1756819    -158.2660980  18.8379593    -93.1134262   -44.8279610   160.3851929   -5.0969119    67.4994431    
435000000     -1.2442970    -160.3954010  19.0900803    -95.4693069   -44.7171707   159.6282043   -5.2310929    65.9925003    
440000000     -1.3243980    -162.4851990  19.3303909    -97.6696320   -44.9800682   156.3827972   -5.3452940    64.4308090    
445000000     -1.3939420    -164.6504974  19.5711403    -99.9374924   -44.3907394   154.0876007   -5.4589319    62.9189491    
450000000     -1.4717290    -166.8208008  19.7928600    -102.2686996  -44.4952812   149.2373962   -5.6023698    61.3813515    
455000000     -1.5554070    -168.9246063  20.0141106    -104.4947968  -44.1607704   147.0601959   -5.7145829    59.9304008    
460000000     -1.6323590    -171.0662994  20.2287292    -106.7944031  -43.0866814   147.5619965   -5.8534961    58.4918594    
465000000     -1.7362460    -173.3209991  20.4270000    -109.0793991  -43.4162216   144.1399994   -5.9796071    56.9445686    
470000000     -1.8157210    -175.3692932  20.6304703    -111.2973022  -42.9087105   143.7064056   -6.1199360    55.5658989    
475000000     -1.9224230    -177.6271057  20.8163395    -113.6110992  -42.8929787   142.3636932   -6.2614231    54.1638908    
480000000     -2.0317359    -179.7619934  20.9991207    -115.8747025  -42.5308113   139.3497009   -6.3925071    52.6508904    
485000000     -2.1329880    178.0877075   21.1804504    -118.0886993  -42.6478119   136.8529968   -6.5352612    51.3309097    
490000000     -2.2346051    175.9230957   21.3434296    -120.4170990  -42.2386208   134.8737030   -6.6824021    49.8284111    
495000000     -2.3541019    173.7646027   21.5076408    -122.6921997  -42.1924095   133.2227936   -6.8260789    48.3339996    
500000000     -2.4731469    171.5829010   21.6590309    -124.9029999  -41.9374809   132.4324036   -6.9697409    46.9708099    
505000000     -2.5895040    169.4640961   21.8058395    -127.1690979  -41.6576881   129.3153992   -7.1256070    45.6264191    
510000000     -2.7068300    167.2478027   21.9571304    -129.4190063  -41.4026909   128.1497955   -7.2719178    44.2879906    
515000000     -2.8397260    165.1351929   22.0823593    -131.6007996  -41.3172989   124.4116974   -7.4249439    42.9180717    
520000000     -2.9777789    162.9884949   22.2169800    -133.8376007  -41.0789108   124.3180008   -7.5670710    41.5844612    
525000000     -3.1186800    160.9002075   22.3339901    -135.9851990  -40.8405495   123.0124969   -7.7324762    40.2897415    
530000000     -3.2612031    158.7653961   22.4475307    -138.1947937  -40.7078514   121.8327026   -7.8862910    39.0245590    
535000000     -3.3989480    156.7480011   22.5695305    -140.3114014  -40.7192192   119.4886017   -8.0521803    37.7671509    
540000000     -3.5583639    154.6049042   22.6636906    -142.5252075  -40.5646782   117.4988022   -8.1992130    36.4578514    
545000000     -3.7001650    152.4906006   22.7677402    -144.6981964  -40.6008186   114.7490997   -8.3685856    35.2100906    
550000000     -3.8530719    150.4013977   22.8643799    -146.8123016  -40.2992401   112.4225998   -8.5072021    34.0389900    
555000000     -4.0123062    148.4331970   22.9526405    -148.9436035  -39.9985886   112.6623001   -8.6793041    32.8756790    
560000000     -4.1765628    146.2893982   23.0359497    -151.0626068  -40.1144714   109.1081009   -8.8423233    31.6951599    
565000000     -4.3395782    144.3175049   23.1150093    -153.1235046  -39.8771515   108.5189972   -9.0083542    30.4992905    
570000000     -4.5063510    142.3032990   23.1859093    -155.2062073  -39.7299805   106.4117966   -9.1591845    29.3472691    
575000000     -4.6828928    140.3724976   23.2572403    -157.2404938  -39.9636993   104.3722000   -9.3348360    28.2049809    
580000000     -4.8655601    138.3161926   23.3183308    -159.2966003  -39.6028099   103.4213028   -9.5011892    27.0578804    
585000000     -5.0402961    136.3249054   23.3801498    -161.2893982  -39.4026909   102.1626968   -9.6576042    25.9108791    
590000000     -5.2174568    134.3755951   23.4426804    -163.3162994  -39.3403015   98.7475433    -9.8164005    24.7801495    
595000000     -5.4010539    132.4293976   23.4949398    -165.2938995  -39.2435608   98.0952606    -9.9778719    23.6731892    
600000000     -5.5959940    130.5240021   23.5355396    -167.2635040  -39.0069199   95.5926285    -10.1550903   22.5076599    
605000000     -5.7922831    128.6054993   23.5877209    -169.1894989  -39.1976318   94.6778030    -10.3069201   21.5330505    
610000000     -5.9920130    126.7124023   23.6253204    -171.1139069  -39.2861786   93.8828430    -10.4722700   20.4786396    
615000000     -6.1811838    124.8386002   23.6605492    -173.0184021  -39.0087395   94.0695419    -10.6320496   19.4525299    
620000000     -6.3827882    123.0037003   23.6968498    -174.9104004  -38.9192810   89.9775085    -10.7681303   18.4467793    
625000000     -6.5837388    121.1816025   23.7243900    -176.7769928  -38.9669418   89.7781067    -10.9350300   17.2574692    
630000000     -6.7869411    119.3506012   23.7602100    -178.6376953  -38.8172112   86.2703171    -11.0679903   16.2870808    
635000000     -6.9992318    117.6992035   23.7877293    179.5052032   -38.7704887   86.5895462    -11.2226105   15.3215704    
640000000     -7.2067351    115.7789001   23.8121300    177.7080994   -38.4652596   84.9203796    -11.3753099   14.4819803    
645000000     -7.4195571    113.9609985   23.8315105    175.8545074   -38.7257004   83.2535706    -11.5437498   13.2410097    
650000000     -7.6296520    112.2993011   23.8488693    174.1244049   -38.3705406   82.4925537    -11.6985102   12.3096800    
655000000     -7.8607440    110.5167007   23.8588409    172.3567963   -38.3807297   79.5288467    -11.8335505   11.3325901    
660000000     -8.0670385    108.8356018   23.8657799    170.6195068   -38.4825592   79.5994034    -11.9841299   10.3286304    
665000000     -8.2988443    107.1451035   23.8816509    168.9013062   -38.4026794   76.7549133    -12.1252403   9.3137531     
670000000     -8.5343313    105.4180984   23.8826504    167.2196045   -38.3340607   74.5157471    -12.2722998   8.2887497     
675000000     -8.7707005    103.7825012   23.8923092    165.5480957   -38.2425499   75.5965729    -12.4216204   7.3480778     
680000000     -9.0040236    102.1315002   23.8965893    163.8213043   -38.0515709   73.7962036    -12.5595999   6.2892699     
685000000     -9.2348309    100.5149994   23.8982906    162.1961060   -38.1403198   73.3414764    -12.6773396   5.2289958     
690000000     -9.4664888    98.9878464    23.8925591    160.5500946   -38.5114708   70.7920990    -12.8285799   4.3212328     
695000000     -9.7200603    97.2267685    23.8929100    158.9624023   -38.3478699   69.6785202    -12.9682198   3.3183849     
700000000     -9.9535379    95.5770874    23.8842697    157.3385925   -37.9784698   67.8683624    -13.0874500   2.1875851     
705000000     -10.2020502   94.1132126    23.8790398    155.7792053   -38.0134315   67.1007233    -13.2056999   1.1286070     
710000000     -10.4584303   92.4247818    23.8719597    154.2046967   -38.2000809   66.4343414    -13.3633404   0.0663666     
715000000     -10.7045403   91.0126038    23.8631191    152.6423035   -38.0491905   65.4399414    -13.4593601   -0.8430980    
720000000     -10.9579897   89.4053421    23.8495598    151.1013947   -38.1822319   61.8925591    -13.5826101   -2.0481730    
725000000     -11.2282495   87.6717529    23.8440895    149.5852051   -38.0206795   59.9721489    -13.6934004   -3.0133810    
730000000     -11.4733200   86.2888565    23.8252106    148.0796967   -38.0454597   61.3712692    -13.8392096   -4.1237302    
735000000     -11.7334700   84.7522278    23.8119698    146.5762024   -38.0359993   61.1890182    -13.9473495   -5.2611318    
740000000     -12.0060701   83.3152466    23.7971001    145.0899048   -37.9784889   59.4965096    -14.0419197   -6.2558680    
745000000     -12.2730398   81.6648712    23.7845192    143.6553040   -37.7925606   57.1664391    -14.1639299   -7.3131208    
750000000     -12.5273104   80.2575073    23.7662907    142.2164001   -37.9499397   58.5218697    -14.2740097   -8.4214973    
755000000     -12.8160696   78.7366714    23.7486401    140.7637024   -37.9123497   57.1277695    -14.3797798   -9.5473719    
760000000     -13.0748396   77.3110123    23.7259293    139.3359985   -37.9490700   54.0893097    -14.4909697   -10.7916298   
765000000     -13.3634901   75.8324738    23.7054005    137.9255066   -37.9218788   52.1154594    -14.6047096   -11.9017096   
770000000     -13.6580696   74.2313232    23.6904202    136.5435944   -37.7915611   52.2042885    -14.6771603   -13.1281605   
775000000     -13.9479904   72.8609467    23.6636505    135.1593933   -37.8101311   51.6523094    -14.7551603   -14.3708897   
