!Mini-Circuits Laboratory
!S-Parameters
!Model: ZX60-P162LN+
!Run / Lot / Date Code: E114703 /  / NA
!Fixture: 
!Network Analyzer: ;  Serial number: 71013
!Date: 12/21/2011 at 12:41:04 PM
!S/N: Unit3
!Tested with: 
!
# Hz  S  dB  R  50
!Frequency    S11 dB        S11 Deg       S21 dB        S21 Deg       S12 dB        S12 Deg       S22 dB        S22 Deg       
10000000      -0.0033189    -3.3828001    -33.9540482   -15.3670301   -39.0598717   154.0298004   -0.0700328    -36.1086998   
15000000      -0.0229869    -5.0993109    -27.3432102   -28.5135098   -56.6524391   166.9427032   0.0278861     -50.8400116   
20000000      -0.0154131    -6.7623129    -22.7384605   -36.5438309   -56.8940201   71.8756332    -0.0086710    -66.7440109   
25000000      -0.0101184    -8.5222120    -19.2816010   -45.9182816   -67.2755280   -35.8912811   -0.0725705    -80.5800934   
30000000      -0.0117594    -10.1976700   -16.8132591   -53.0811310   -66.7802200   34.7082100    -0.0832683    -91.6102219   
35000000      -0.0195958    -11.9000101   -14.8411503   -60.1028290   -69.4998016   2.1252830     -0.0799046    -101.8196030  
40000000      -0.0266972    -13.6070995   -13.3086100   -66.6195908   -69.3172913   -174.7677002  -0.1328702    -111.1707993  
45000000      -0.0241545    -15.3623695   -12.0202503   -72.2332382   -74.9993210   4.3501339     -0.1391818    -119.2771988  
50000000      -0.0251947    -16.9992008   -10.9891396   -77.7939529   -42.6218185   171.2456055   -0.1585720    -126.5541992  
55000000      -0.0323670    -18.7157707   -10.0714397   -82.0719223   -70.1714325   -51.2708397   -0.1971943    -132.9024963  
60000000      -0.0052928    -20.4341106   -9.3608236    -86.1425629   -49.1454697   -121.9318008  -0.2317628    -138.8562012  
65000000      -0.0324778    -22.1547508   -8.7066183    -90.7974777   -75.2001724   -77.2662582   -0.2559712    -144.1392059  
70000000      -0.0291161    -23.7634106   -8.1723633    -94.4889679   -71.1304474   -145.0995026  -0.2851239    -149.0393982  
75000000      -0.0337904    -25.5301094   -7.7353811    -98.2046967   -71.0177536   -179.4994965  -0.3223663    -153.5319977  
80000000      -0.0372837    -27.1750298   -7.3848858    -101.5705032  -66.2376938   71.4917984    -0.3619844    -157.7548981  
85000000      -0.0364750    -28.9007607   -7.1023459    -104.8146973  -75.4110565   152.1712036   -0.3895472    -161.6123962  
90000000      -0.0290381    -30.6308002   -6.8608298    -107.9886017  -65.5114670   -159.4519958  -0.4249971    -165.3038025  
95000000      -0.0339711    -32.4010201   -6.6991282    -111.0715027  -72.2301712   177.2586060   -0.4622981    -168.7646942  
100000000     -0.0299384    -34.1059990   -6.6106272    -113.8607025  -70.5598297   -83.4766769   -0.5034194    -172.0588989  
105000000     -0.0273781    -35.8716087   -6.5719171    -116.6741028  -78.0725708   83.2750092    -0.5343249    -175.1697998  
110000000     -0.0336754    -37.5819206   -6.6151938    -119.2592010  -79.0635071   -128.0563965  -0.5728082    -178.1383057  
115000000     -0.0385099    -39.2685509   -6.7184930    -121.7826996  -74.1179886   132.6925964   -0.6112238    178.9989014   
120000000     -0.0352947    -41.0663109   -6.8895650    -124.2301025  -81.9053421   72.9661789    -0.6458613    176.3137970   
125000000     -0.0424598    -42.7399902   -7.1374369    -126.5251007  -70.7833786   147.4351044   -0.6805819    173.6602020   
130000000     -0.0442766    -44.4883690   -7.4724650    -128.7259064  -71.8439865   -157.2091064  -0.7205258    171.0686951   
135000000     -0.0443006    -46.2212296   -7.8897548    -130.7174072  -72.3186188   165.9463959   -0.7691047    168.6694946   
140000000     -0.0454042    -47.9623299   -8.4349756    -132.4425964  -72.5341492   179.6889954   -0.8096609    166.3135986   
145000000     -0.0497355    -49.6621590   -9.1241245    -134.0046997  -65.9209671   61.9974899    -0.8542813    164.0343933   
150000000     -0.0482077    -51.3117905   -9.9796448    -135.2160034  -61.0952301   -158.4494019  -0.9025525    161.7740021   
155000000     -0.0579748    -53.1780815   -11.0257998   -135.9685974  -89.9516602   -17.0703602   -0.9512479    159.5944061   
160000000     -0.0661591    -54.9228401   -12.3625898   -135.7808990  -67.5182495   34.0034904    -1.0000910    157.4669037   
165000000     -0.0684676    -56.6534805   -14.0960302   -134.2837982  -70.0584183   107.8580017   -1.0416350    155.3885040   
170000000     -0.0708901    -58.4185905   -16.4015408   -129.9172974  -76.1629105   -173.9571075  -1.0971620    153.3618011   
175000000     -0.0713198    -60.1678009   -19.5678406   -118.4312973  -73.3558426   44.2755814    -1.1394430    151.4051971   
180000000     -0.0725772    -61.8831482   -22.9516392   -87.4148331   -83.1293030   44.1815491    -1.1933330    149.4049988   
185000000     -0.0786117    -63.6614494   -21.8069801   -41.0026093   -71.3271332   168.1909027   -1.2424310    147.4981995   
190000000     -0.0806373    -65.4082565   -17.5278702   -17.7473392   -69.0578918   89.2589569    -1.2926880    145.5691986   
195000000     -0.0815217    -67.1861572   -13.9698801   -8.6040449    -72.7125931   -166.6325989  -1.3386840    143.7106934   
200000000     -0.0841634    -68.9872818   -11.1965799   -5.1701870    -87.2080536   92.5889969    -1.3906831    141.8368988   
205000000     -0.0901539    -70.7734070   -8.9563913    -4.1074681    -73.7554626   -159.3616943  -1.4467590    140.0238037   
210000000     -0.0936914    -72.5569305   -7.0283189    -4.3136339    -72.4839325   159.0160980   -1.4937980    138.1914063   
215000000     -0.1017738    -74.4004669   -5.3961649    -5.0013981    -69.2205734   -162.4826965  -1.5439200    136.3746948   
220000000     -0.1045038    -76.1331635   -3.9356561    -5.9785700    -76.6551514   123.1695023   -1.6047810    134.6123962   
225000000     -0.1027033    -77.9296570   -2.6244030    -7.3671641    -74.2785492   -161.1365051  -1.6629820    132.8757935   
230000000     -0.1132084    -79.7352219   -1.4371340    -8.8734369    -67.3024292   -122.7603989  -1.7216790    131.1152039   
235000000     -0.1171258    -81.5314331   -0.3346716    -10.4778299   -73.2255173   147.3014984   -1.7728790    129.3979950   
240000000     -0.1278299    -83.3461838   0.6789563     -12.2456903   -69.4424667   -131.9091034  -1.8330790    127.6846008   
245000000     -0.1316851    -85.1151581   1.6289910     -14.0036898   -69.1303101   -133.5932007  -1.8889250    126.0078964   
250000000     -0.1479561    -87.0435410   2.5135751     -15.9917803   -82.3150101   32.5365105    -1.9467040    124.2941971   
255000000     -0.1365480    -88.8385162   3.3626561     -17.7279797   -64.2634506   -125.1341019  -2.0057580    122.6784973   
260000000     -0.1368319    -90.6335068   4.1529179     -19.6384697   -69.0931168   153.4039001   -2.0691569    121.0323029   
265000000     -0.1543721    -92.4702530   4.8999891     -21.6292992   -60.6025887   -121.5886993  -2.1373601    119.3877029   
270000000     -0.1538544    -94.3983078   5.6334701     -23.5866508   -62.0864601   -145.0836029  -2.1945210    117.7830963   
275000000     -0.1708221    -96.1963196   6.2957139     -25.6567192   -59.3511391   -143.5361023  -2.2679751    116.1464996   
280000000     -0.1667773    -98.0826416   6.9682770     -27.6995201   -58.4492111   -143.9678955  -2.3287330    114.4380035   
285000000     -0.1882205    -99.9865570   7.5871630     -29.8368206   -59.0346489   -152.5467072  -2.4054110    112.8359985   
290000000     -0.1940435    -101.8143997  8.1925182     -31.8264294   -60.0287514   -145.4185028  -2.4673691    111.2777023   
295000000     -0.2114833    -103.8019028  8.7775888     -33.9787598   -60.1856613   -122.8622971  -2.5281160    109.6608963   
300000000     -0.2244385    -105.5609970  9.3318844     -35.8831787   -56.8966789   -147.8088989  -2.6028049    108.1572037   
305000000     -0.2470644    -107.5018005  9.8655682     -38.1609192   -55.2535896   -154.7321930  -2.6797049    106.4534988   
310000000     -0.2539428    -109.4436035  10.4032202    -40.2593193   -56.0559692   -161.8090057  -2.7463441    104.8504028   
315000000     -0.2625079    -111.3932037  10.9024696    -42.3834801   -54.4263382   -158.3587952  -2.8246529    103.3338013   
320000000     -0.2887274    -113.2057037  11.3923397    -44.4501305   -53.1215210   -156.6125031  -2.8972430    101.6865997   
325000000     -0.2979065    -115.2750015  11.8679399    -46.6475182   -53.1546707   -161.2987061  -2.9781849    100.1472015   
330000000     -0.3225642    -117.1311035  12.3271799    -48.7599106   -54.6382904   -154.8117065  -3.0472829    98.5610199    
335000000     -0.3398436    -119.0888977  12.7730999    -50.9542313   -51.8571587   -166.0760956  -3.1316161    96.9474564    
340000000     -0.3589480    -121.0591965  13.2066603    -53.1005898   -52.3419304   -165.0614929  -3.2092831    95.4233932    
345000000     -0.3836237    -123.0343018  13.6331797    -55.3214607   -51.8919106   -162.2554932  -3.2909300    93.8123169    
350000000     -0.4043321    -125.0462036  14.0376301    -57.5021706   -50.9959297   -175.1643982  -3.3837049    92.2515030    
355000000     -0.4412396    -127.1303024  14.4419203    -59.7415390   -51.4802094   -172.8610992  -3.4608190    90.6627426    
360000000     -0.4667880    -129.0769043  14.8223801    -61.9262085   -49.9932404   -168.4122009  -3.5440240    89.1141129    
365000000     -0.4901901    -131.1112976  15.2009602    -64.1054306   -49.4410095   -174.9638062  -3.6407869    87.5344009    
370000000     -0.5340719    -133.1390991  15.5610905    -66.3720627   -50.2878990   -176.4011993  -3.7270679    85.9492264    
375000000     -0.5633019    -135.2230072  15.9148502    -68.5660782   -49.8329086   177.9176941   -3.8203189    84.4404984    
380000000     -0.5963880    -137.2716064  16.2600002    -70.8283615   -48.9169693   -177.8437042  -3.9205921    82.8661804    
385000000     -0.6475800    -139.2947998  16.5858402    -73.0321274   -49.1169815   176.2635040   -4.0159712    81.3637314    
390000000     -0.6825835    -141.4356995  16.9157791    -75.3527069   -48.2919388   176.3023987   -4.1149349    79.7167969    
395000000     -0.7264891    -143.4588928  17.2375908    -77.5020981   -47.4396400   172.1894073   -4.2142868    78.1988831    
400000000     -0.7704595    -145.5433960  17.5352192    -79.8346634   -47.7273293   166.0897064   -4.3283639    76.5768814    
405000000     -0.8127919    -147.6080933  17.8411503    -82.1232529   -47.1560516   170.8061066   -4.4321070    74.9526825    
410000000     -0.8626149    -149.7227020  18.1308308    -84.3766174   -46.1858292   167.3831940   -4.5369201    73.4187164    
415000000     -0.9187639    -151.8489075  18.4134007    -86.6854019   -45.9869995   164.8914032   -4.6512079    71.8949890    
420000000     -0.9759816    -153.9414063  18.6770191    -88.8850327   -46.0655098   164.0939941   -4.7547579    70.4560623    
425000000     -1.0407280    -156.1425934  18.9373894    -91.2132721   -45.7162209   162.4517975   -4.8765030    68.8794479    
430000000     -1.1101561    -158.2337952  19.1926708    -93.4924698   -45.7626991   155.5670929   -4.9897771    67.4056931    
435000000     -1.1725910    -160.4338989  19.4429798    -95.8514099   -45.2982292   157.2261047   -5.1250510    65.8370972    
440000000     -1.2499220    -162.5121002  19.6823406    -98.0713806   -44.8385887   154.5635986   -5.2360520    64.3824005    
445000000     -1.3183680    -164.6410980  19.9208908    -100.3301010  -44.7434502   150.1687927   -5.3563290    62.8843689    
450000000     -1.3907260    -166.7783051  20.1405697    -102.6684036  -43.8097000   149.1562042   -5.4966998    61.2895699    
455000000     -1.4749730    -168.8766937  20.3596706    -104.8968964  -43.6886482   150.4512939   -5.6126919    59.8503494    
460000000     -1.5509740    -171.0717926  20.5737305    -107.1953964  -43.7075310   150.0052032   -5.7468758    58.4401283    
465000000     -1.6549340    -173.2723999  20.7691898    -109.4982986  -43.3860703   144.1806946   -5.8873401    56.9205704    
470000000     -1.7360390    -175.3238983  20.9690399    -111.7106018  -43.3944283   141.4701996   -6.0231891    55.5251808    
475000000     -1.8352900    -177.5361023  21.1545792    -114.0270996  -42.5154305   141.7973022   -6.1673212    54.0756493    
480000000     -1.9398290    -179.6808014  21.3355007    -116.3026962  -42.8820305   140.0549011   -6.2984881    52.6187592    
485000000     -2.0394011    178.1737976   21.5148697    -118.5195007  -42.5962791   136.6472015   -6.4443598    51.2642593    
490000000     -2.1443660    176.0303040   21.6745300    -120.8488007  -42.4515686   136.7050018   -6.5980721    49.7703514    
495000000     -2.2527120    173.8849030   21.8402100    -123.1269989  -42.0255890   135.7666931   -6.7409701    48.2503586    
500000000     -2.3688860    171.7402954   21.9901505    -125.3396988  -41.8812218   130.6484070   -6.8893681    46.9491806    
505000000     -2.4919701    169.6728058   22.1332092    -127.6143036  -41.7322311   129.5626984   -7.0429382    45.5706406    
510000000     -2.6018980    167.4799042   22.2819195    -129.8572998  -41.6135292   128.5404053   -7.1931672    44.2371902    
515000000     -2.7305820    165.3694000   22.4055901    -132.0350037  -41.2239799   129.1132050   -7.3492322    42.8611107    
520000000     -2.8640909    163.2671967   22.5381699    -134.2678070  -40.9440994   126.3069000   -7.5032711    41.5326309    
525000000     -3.0028961    161.1737976   22.6562195    -136.4212036  -41.0071411   121.0180969   -7.6595492    40.2469902    
530000000     -3.1359739    159.1044006   22.7653294    -138.6217957  -41.0136299   119.6471024   -7.8208699    38.9146385    
535000000     -3.2690821    157.1170044   22.8862991    -140.7359009  -40.8301506   119.1270981   -7.9783249    37.6828003    
540000000     -3.4218650    155.0220032   22.9806194    -142.9311066  -40.5615311   117.5102005   -8.1306562    36.4220085    
545000000     -3.5687070    152.9595032   23.0803394    -145.1062927  -40.3764801   115.8588028   -8.3009195    35.1255608    
550000000     -3.7201221    150.9107971   23.1770592    -147.2191010  -40.1761589   114.4690018   -8.4508591    34.0427818    
555000000     -3.8658359    148.9620056   23.2626896    -149.3383026  -40.1301613   114.6327972   -8.6157122    32.8009682    
560000000     -4.0232558    146.8777008   23.3442707    -151.4613953  -39.9109497   109.1453018   -8.7829914    31.5223503    
565000000     -4.1884589    144.8809967   23.4237900    -153.5142059  -40.1541290   106.3741989   -8.9583693    30.4513493    
570000000     -4.3503022    142.9317017   23.4937992    -155.5852051  -39.9206085   107.4244003   -9.1159573    29.1925507    
575000000     -4.5186191    141.0249939   23.5642300    -157.6107025  -39.8438110   105.8097000   -9.2782145    28.1554508    
580000000     -4.6898012    139.0552979   23.6237698    -159.6625977  -39.5163383   101.9054031   -9.4599733    26.9400501    
585000000     -4.8638139    137.1394958   23.6856403    -161.6593018  -39.5185699   101.5440979   -9.6103401    25.7932491    
590000000     -5.0336652    135.1665955   23.7476006    -163.6735992  -39.4384804   100.9703979   -9.7710590    24.6937408    
595000000     -5.2145109    133.2711029   23.7996006    -165.6472931  -39.2186012   99.2857971    -9.9333248    23.5370293    
600000000     -5.3994780    131.4494019   23.8389492    -167.5997009  -38.9581413   95.2548065    -10.1009598   22.4932804    
605000000     -5.5803118    129.5543060   23.8916302    -169.5390015  -39.0447197   96.0470581    -10.2548800   21.4413395    
610000000     -5.7688050    127.6959991   23.9274998    -171.4487000  -38.9728699   93.1669769    -10.4115896   20.4424191    
615000000     -5.9512091    125.8510971   23.9646492    -173.3404999  -38.9334106   92.1096878    -10.5650396   19.3609905    
620000000     -6.1502838    124.0990982   24.0007801    -175.2384949  -38.8152695   91.2104416    -10.7275496   18.2631493    
625000000     -6.3457398    122.1942978   24.0254192    -177.1067963  -38.9486809   89.5572281    -10.8865900   17.1940498    
630000000     -6.5359859    120.5224991   24.0612507    -178.9526062  -38.7653999   88.8511963    -11.0301399   16.1753101    
635000000     -6.7413979    118.8574982   24.0862598    179.1914978   -38.9028816   86.2304230    -11.1711502   15.2003498    
640000000     -6.9367180    117.0273972   24.1125603    177.3988953   -38.7484093   84.5651627    -11.3348703   14.3563900    
645000000     -7.1402602    115.2246017   24.1308804    175.5574036   -38.3871117   83.1948318    -11.4825201   13.2391701    
650000000     -7.3490210    113.5565033   24.1457005    173.8307953   -38.3437614   82.4247589    -11.6250496   12.2536001    
655000000     -7.5602360    111.8972015   24.1571293    172.0690002   -38.4288101   80.2025909    -11.7868996   11.3220997    
660000000     -7.7680392    110.1857986   24.1624203    170.3439026   -38.2983398   78.8728485    -11.9334602   10.3359604    
665000000     -7.9873948    108.5186996   24.1791401    168.6271057   -38.3114395   77.2388611    -12.0699196   9.4710646     
670000000     -8.2034693    106.9935989   24.1808891    166.9562073   -38.4370499   77.4354172    -12.2075901   8.4263687     
675000000     -8.4287863    105.3070984   24.1884499    165.2888947   -38.1991882   74.1862564    -12.3294697   7.3937368     
680000000     -8.6344872    103.6634979   24.1931190    163.5606995   -38.3837700   74.5310287    -12.4868498   6.4199901     
685000000     -8.8566952    102.0998001   24.1931190    161.9456024   -38.3775597   74.8616562    -12.6086302   5.4327412     
690000000     -9.0774422    100.4845963   24.1879902    160.3130035   -38.0258484   70.8564606    -12.7545004   4.3487391     
695000000     -9.3164482    98.8854370    24.1877594    158.7359009   -38.1860504   69.4139862    -12.8842602   3.5202141     
700000000     -9.5420113    97.3072662    24.1790409    157.1154022   -38.0851097   69.8734436    -13.0026798   2.3566301     
705000000     -9.7639427    95.8614731    24.1744194    155.5657043   -38.1374283   70.1705322    -13.1309605   1.3603860     
710000000     -10.0022602   94.2831268    24.1690903    153.9913025   -38.2263908   66.2273026    -13.2585201   0.2932585     
715000000     -10.2377596   92.7449417    24.1588993    152.4398956   -38.0195618   64.6068497    -13.3703499   -0.5656544    
720000000     -10.4498596   91.3185196    24.1480007    150.8952942   -37.8427200   65.4830170    -13.5135498   -1.7194951    
725000000     -10.7050896   89.7244492    24.1414394    149.3955994   -37.9254799   64.2827835    -13.6102600   -2.6960440    
730000000     -10.9373302   88.2323608    24.1212006    147.8907013   -37.9835091   63.2204514    -13.7507296   -3.6942520    
735000000     -11.1734800   86.7213516    24.1095295    146.3946075   -37.7642784   62.3060608    -13.8577299   -4.7091460    
740000000     -11.4200401   85.3427582    24.0936298    144.9149017   -37.7794418   58.1957207    -13.9369898   -5.7040391    
745000000     -11.6480598   83.8664627    24.0807800    143.4942017   -37.9796791   60.3200989    -14.0767603   -6.7484560    
750000000     -11.9098101   82.4811325    24.0628300    142.0675964   -37.9625397   57.0041695    -14.1687698   -7.8678880    
755000000     -12.1713400   81.0619888    24.0483093    140.6058960   -37.8840408   56.3066597    -14.2819405   -9.0101471    
760000000     -12.3976002   79.6661072    24.0241394    139.1885071   -37.7097816   55.5525703    -14.3884096   -10.2024803   
765000000     -12.6612196   78.1999512    24.0031204    137.7779999   -37.9186897   54.2505684    -14.5014400   -11.2659903   
770000000     -12.9220695   76.7852020    23.9884491    136.3997040   -37.7281685   54.0245094    -14.5628796   -12.4151297   
775000000     -13.1704998   75.5204773    23.9633808    135.0334015   -37.7477112   51.4963493    -14.6537304   -13.5249500   
