! AWR Design Environment (18789) Mon Mar 23 01:53:00 2026
! Document = 'Schematic 1'
! nPorts: 2, nXvals: 42
# GHz S DB R 50
!Freq	DBS11	AngS11	DBS21	AngS21	DBS12	AngS12	DBS22	AngS22
0	0.028946681	0	-66.91191	180	-126.88069	180	-1.2411742	180
0.05	-0.023487616	-16.934504	-98.283404	119.86097	-173.82505	12.321242	-4.0727034	-178.15119
0.1	-0.030558083	-34.106364	-93.625199	111.27583	-206.4845	176.64303	-5.138453	166.89877
0.15	-0.048770102	-51.303553	-93.579914	135.92631	-194.24521	-0.89536482	-5.0692951	153.92076
0.2	-0.084226703	-68.987105	-96.077591	-42.268191	-222.13765	-101.43312	-5.0680917	142.46999
0.25	-0.14815086	-87.038904	-80.276881	-8.3518515	-211.4068	-14.978482	-5.0389084	131.03072
0.3	-0.21680537	-105.82094	-66.255494	60.399268	-181.91707	-38.089799	-5.012144	119.34686
0.35	-0.50416019	-126.22592	-68.21386	78.044166	-179.13026	-99.274269	-4.9994187	107.43329
0.4	-1.4422683	-146.39272	-50.279777	122.49355	-167.52153	-136.78302	-4.8059195	95.205147
0.45	-2.3303496	-159.53272	-54.279759	14.385976	-156.72709	-41.785821	-4.6478508	83.147146
0.5	-2.3413736	-176.77945	-53.582701	158.9056	-168.15183	-133.54502	-4.5725669	69.398262
0.55	-2.7326704	163.3793	-66.178936	169.36101	-168.57606	-129.32865	-4.3540441	56.051063
0.6	-3.3343527	141.92145	-50.942562	-50.923765	-165.11065	161.30451	-4.1315651	41.989068
0.65	-4.4017725	120.76305	-55.329707	71.360409	-161.38505	-93.850855	-3.8524102	27.884561
0.7	-5.787904	99.210574	-60.640517	100.8994	-164.42105	-179.08856	-3.6171626	12.558457
0.75	-7.4243984	76.789759	-58.253367	126.08609	-162.65419	-74.766786	-3.4093251	-2.3939392
0.8	-9.1925456	54.143564	-49.983673	57.871191	-154.75593	153.34926	-3.1063874	-16.997102
0.85	-11.025107	29.601987	-60.046145	-167.00121	-172.83806	-71.204321	-2.8265144	-32.424158
0.9	-12.961722	0.92278943	-59.573426	8.7545585	-161.28849	-71.52103	-2.4585135	-47.549467
0.95	-14.612287	-32.234948	-40.490027	148.23912	-150.78182	-80.521706	-2.242824	-63.962271
1	-15.042821	-70.817071	-29.434612	121.85176	-134.83744	-94.30296	-1.9803705	-81.01616
1.05	-14.363416	-108.73504	-16.703395	89.850962	-122.02532	-118.02173	-1.8435421	-99.437993
1.1	-13.445436	-150.53934	-2.8288247	50.681164	-107.76769	-151.46319	-1.7908626	-121.27654
1.15	-13.577117	160.06344	12.417798	-3.958365	-91.974943	157.75118	-2.059577	-151.26754
1.2	-20.600111	94.385366	28.956089	-90.600525	-75.214216	76.133377	-4.6671107	148.13947
1.25	-22.73937	-143.91509	39.577988	122.28324	-64.164123	-65.580519	-9.0335585	-100.33079
1.3	-18.542704	-179.94093	40.663628	3.1931156	-62.633049	179.5803	-17.27738	-148.15185
1.35	-18.858212	174.40755	40.341424	-89.430858	-62.53203	91.02237	-10.523938	-146.25505
1.4	-17.791899	164.69723	40.14397	-170.6225	-62.852716	13.355428	-23.679076	-170.84793
1.42	-17.958078	162.20855	39.906697	158.82341	-62.768958	-13.78835	-18.318987	-88.537434
1.45	-17.77315	163.87415	39.581314	115.7118	-62.911194	-55.097646	-10.779915	-111.93236
1.5	-16.066119	157.18886	39.53818	44.621351	-62.737584	-122.87351	-11.248017	-172.29237
1.55	-16.276249	147.48119	38.975531	-30.368419	-62.710368	168.69289	-20.478903	-78.32248
1.6	-16.121203	144.27425	38.275828	-110.07615	-63.100827	93.82125	-8.4937791	-159.7669
1.65	-17.381756	155.03224	33.309983	153.81179	-67.739882	2.1314208	-9.0414593	44.983939
1.7	-13.259679	160.33904	24.859667	91.405847	-75.917042	-56.379939	-5.9210819	-43.890779
1.75	-10.336394	144.13402	17.893241	45.157325	-82.641918	-100.1329	-4.3464446	-79.344114
1.8	-9.3464602	123.77868	11.251524	0.8001654	-89.152684	-137.93672	-3.4383323	-101.40821
1.85	-9.8752853	104.95209	3.8693511	-38.843515	-95.933828	-173.62586	-2.8676186	-117.70113
1.9	-11.333347	96.026887	-4.0875251	-70.041667	-103.94822	159.91992	-2.465552	-131.40768
1.95	-12.104987	91.323998	-11.980029	-91.0124	-111.30054	142.47223	-2.2040774	-143.1138
2	-12.771863	87.797818	-19.610614	-110.16901	-118.36625	129.85378	-1.9617892	-153.99275
! Noise Parameters
! Freq	NFmin(dB)	Mag(GammaOpt)	Ang(GammaOpt)(deg)	rn(normalized)
0	4.3751537e-12	0.99999992	180	2e-20
0.05	65.726646	0.99729954	16.934504	6.7622427e+08
0.1	62.525897	0.99648805	34.106364	2.3237744e+08
0.15	65.832727	0.99440087	51.303553	2.7719187e+08
0.2	73.12024	0.99034991	68.987105	7.1849091e+08
0.25	61.498841	0.98308814	87.038904	21769447
0.3	49.621117	0.9753483	105.82094	667861.39
0.35	56.696608	0.94360882	126.22592	826307.42
0.4	43.568822	0.84700619	146.39272	6168.4509
0.45	50.414887	0.76468492	159.53272	10062.836
0.5	50.810386	0.763715	176.77945	4210.6926
0.55	64.879093	0.73007332	-163.3793	220399.34
0.6	50.960697	0.68121212	-141.92145	22788.724
0.65	57.103712	0.60243664	-120.76305	150397.53
0.7	63.775651	0.5135761	-99.210574	890475.77
0.75	62.474187	0.42538295	-76.789759	742110.44
0.8	55.196085	0.34703455	-54.143564	143586.61
0.85	65.957311	0.28102479	-29.601987	1677462
0.9	66.228332	0.22486089	-0.92278937	1657537.3
0.95	47.786433	0.1859455	32.234948	20985.387
1	37.417389	0.17695342	70.817064	1633.8322
1.05	25.491874	0.19135032	108.73489	83.733834
1.1	12.823407	0.21268052	150.53636	3.2087122
1.15	2.5465504	0.2095617	-160.13954	0.13548367
1.2	0.16911249	0.099527646	-96.510135	0.0099079026
1.25	0.018516594	0.05366046	123.12126	0.0010210296
1.3	0.010190544	0.088273996	168.27199	0.00050200555
1.35	0.0091199823	0.094571508	-177.38629	0.00044145263
1.4	0.0091073838	0.10005234	-171.35173	0.00043590381
1.42	0.0092342067	0.10294015	-169.23878	0.00044004779
1.45	0.0094868928	0.10872797	-167.19369	0.00044749589
1.5	0.01013112	0.12119422	-161.66008	0.00046970689
1.55	0.01146609	0.12831473	-153.88225	0.00053335553
1.6	0.017508802	0.11967807	-148.82995	0.00083437203
1.65	0.048076185	0.14245302	-162.78345	0.0021288677
1.7	0.14859494	0.22106191	-160.06561	0.0057969244
1.75	0.42881077	0.30425065	-143.90655	0.017183982
1.8	1.3581828	0.34064559	-123.72325	0.076618998
1.85	4.5144341	0.32070549	-104.94499	0.47746964
1.9	10.829264	0.27121057	-96.026776	3.0461405
1.95	18.437583	0.24816827	-91.324122	19.243067
2	26.181949	0.22982969	-87.797862	117.01352
